#  HZ   S   DB   R     50.00 
! Rohde & Schwarz Vector Network Analyzer 
! Rohde-Schwarz,ZNL6-2Port,1323001206101709,1.40.1.1-21.04.2.40
! Created: UTC 3/14/2023, 9:51:05 AM
! freq[Hz]                db:S11                  ang:S11                 db:S21                  ang:S21                 db:S12                  ang:S12                 db:S22                  ang:S22
 1.000000000000000E4    -4.928432750883808E1     7.494676460797093      -8.847950541869292E1     7.225889183747078E1    -9.034404912813679E1     8.142457804184554E1    -4.881975774316602E1     4.344392865357582
 1.090000000000000E4    -4.913939885702942E1     5.306513619800469      -8.900090663002622E1     8.070993535757825E1    -8.964655449289671E1     8.813626010384917E1    -4.873622963458593E1     4.359841225813887
 1.180000000000000E4    -4.910416030678131E1     5.394938826146086      -8.830110039685977E1     7.599585259536603E1    -8.783159063383131E1     7.170651336922991E1    -4.877451435912897E1     4.688180367284791
 1.270000000000000E4    -4.907798786066501E1     5.586406230077476      -8.706988639004366E1     7.467669381790110E1    -8.666320619233689E1     8.341145603162248E1    -4.876744193216082E1     4.805847053647210
 1.360000000000000E4    -4.908504387139872E1     5.884555391793312      -8.589249208021953E1     7.790095554459421E1    -8.662584259540722E1     8.094789687850331E1    -4.874695303966597E1     4.754278547321629
 1.450000000000000E4    -4.909611143448252E1     6.022792649786397      -8.561746898027197E1     8.296471522452701E1    -8.537528683213262E1     7.756507318739156E1    -4.877684451515111E1     4.787527519331585
 1.540000000000000E4    -4.910743113126549E1     6.359361468785280      -8.444435836160130E1     8.279760180068509E1    -8.486020419372407E1     7.579323834025959E1    -4.882636284554817E1     5.215892955924908
 1.630000000000000E4    -4.909747816257266E1     6.966741549258408      -8.392865199321476E1     7.931029735074235E1    -8.471803254310622E1     8.463177002990655E1    -4.875413394853329E1     5.328799745398547
 1.720000000000000E4    -4.908091982227879E1     7.175535331841345      -8.476442397250247E1     8.107037488514622E1    -8.463621823054669E1     8.147252486891762E1    -4.878999131536118E1     5.517650162138959
 1.810000000000000E4    -4.905702892317588E1     7.371006705253379      -8.315943409137850E1     8.084295830735790E1    -8.328072616245277E1     8.565937647851408E1    -4.878873201425887E1     5.685137381302119
 1.900000000000000E4    -4.906919789812498E1     7.666759563963571      -8.388299693257972E1     7.998654459950406E1    -8.331482371752186E1     8.339270692895910E1    -4.879632433153485E1     6.010230974251999
 1.990000000000000E4    -4.909659814104942E1     8.118023473963284      -8.229738928751530E1     8.431053311491465E1    -8.248219799415710E1     8.128813794923580E1    -4.884037214304173E1     6.060631895607693
 2.080000000000000E4    -4.907918570282223E1     8.490423300360515      -8.229645617018443E1     8.198200376682766E1    -8.191518631551799E1     8.083397969718403E1    -4.876096013931586E1     6.414145339203861
 2.170000000000000E4    -4.907004940081894E1     8.552433612154099      -8.216735357094041E1     8.688433073388059E1    -8.184344557195271E1     8.150250181213589E1    -4.872042696617054E1     6.757192975539301
 2.260000000000000E4    -4.909479527187873E1     9.006892763719977      -8.144621840219509E1     8.341223378375862E1    -8.143244993087697E1     8.485777409330359E1    -4.876631940698544E1     7.272389284615169
 2.350000000000000E4    -4.908245136072223E1     9.363368757683247      -8.117843336827200E1     8.431765447451839E1    -8.140021179922695E1     8.167105723897815E1    -4.873560822521225E1     7.525194867005628
 2.440000000000000E4    -4.906013843435584E1     9.658239554730674      -8.082781420448975E1     8.008109379671730E1    -8.120173791304870E1     8.510131383243112E1    -4.868926841752557E1     7.562010324910074
 2.530000000000000E4    -4.901280028282186E1     9.813204291057142      -8.044448418804208E1     8.339109781793074E1    -8.083462731144760E1     8.420842891385759E1    -4.870561045284933E1     8.030814817645441
 2.620000000000000E4    -4.898722482657972E1     1.004418749385716E1    -8.008050497375984E1     8.312360974158975E1    -8.029234325839647E1     8.555126888481814E1    -4.875048619408587E1     8.495452338767526
 2.710000000000000E4    -4.896688965909284E1     1.050218326722136E1    -8.018115436194836E1     8.285730080099992E1    -7.988681940290606E1     8.599883302449477E1    -4.864144388154020E1     8.465042502142829
 2.800000000000000E4    -4.897107152418101E1     1.081322191713557E1    -7.960249763762160E1     8.548912215174775E1    -7.942421972882535E1     8.195021979299928E1    -4.865045300412694E1     9.049635059971317
 2.890000000000000E4    -4.896566150680128E1     1.106907393858677E1    -7.917171728181846E1     8.338599991439553E1    -7.929270916053147E1     8.560920439423323E1    -4.864756754006685E1     9.564661721683647
 2.980000000000000E4    -4.894955138519833E1     1.120896109503454E1    -7.913772009446102E1     8.601410719437111E1    -7.915964574884006E1     8.502500713975699E1    -4.865521797373391E1     9.866010365778893
 3.070000000000000E4    -4.891404761704511E1     1.132248632669731E1    -7.869652042157821E1     8.433846571483450E1    -7.872821700723394E1     8.383253066785633E1    -4.861849724634996E1     1.029534612797990E1
 3.160000000000000E4    -4.893070704264584E1     1.172251576494859E1    -7.872013644621504E1     8.547268656874915E1    -7.847064426342121E1     8.423495033185958E1    -4.864059470844359E1     1.057757109606836E1
 3.250000000000000E4    -4.891180075235357E1     1.200418884694979E1    -7.843337331413146E1     8.397056299156463E1    -7.824565165261573E1     8.643048896087502E1    -4.864227779262957E1     1.111300824857977E1
 3.340000000000000E4    -4.890853234547698E1     1.224725476272820E1    -7.807359271038064E1     8.637270054846776E1    -7.809376225172608E1     8.488406776341478E1    -4.863199751788602E1     1.159266944911654E1
 3.430000000000000E4    -4.893009111747076E1     1.268758913270395E1    -7.798168749909925E1     8.714447891747410E1    -7.793741182169498E1     8.582644239832123E1    -4.861945191810695E1     1.217658353423043E1
 3.520000000000000E4    -4.888763249379591E1     1.262493941845515E1    -7.735607580815612E1     8.559159044002476E1    -7.755959272230309E1     8.701199493514687E1    -4.858461191195741E1     1.214544753525673E1
 3.610000000000000E4    -4.888370582634708E1     1.315601898146497E1    -7.734684791793423E1     8.594630892227167E1    -7.776709574649119E1     8.602821514210083E1    -4.859501188120636E1     1.256777601859472E1
 3.700000000000000E4    -4.884655867896499E1     1.321282006637436E1    -7.687901090774653E1     8.403798781707303E1    -7.705841276192395E1     8.544627821998610E1    -4.858520806484977E1     1.297039718580624E1
 3.790000000000000E4    -4.884486160025485E1     1.335172885152351E1    -7.694088905591548E1     8.739256283159013E1    -7.706139330889962E1     8.651023460524631E1    -4.854127678740543E1     1.341596911363618E1
 3.880000000000000E4    -4.880838208431609E1     1.360942850910609E1    -7.668319798281888E1     8.753736822973300E1    -7.662365309579803E1     8.607606766865588E1    -4.852844586587011E1     1.372246488546003E1
 3.970000000000000E4    -4.884396593502575E1     1.385411678129651E1    -7.669125323014998E1     8.566624628843513E1    -7.653911093204235E1     8.564120500520740E1    -4.854043739671636E1     1.406469178118298E1
 4.060000000000000E4    -4.877891179269593E1     1.404707318230281E1    -7.632784909347053E1     8.581086095729728E1    -7.633231290978473E1     8.647011607589113E1    -4.846440282328711E1     1.432138004838996E1
 4.150000000000000E4    -4.876705705269805E1     1.435014969241139E1    -7.607777806395003E1     8.639522225976344E1    -7.612442883195116E1     8.664108198255489E1    -4.848624071249854E1     1.466657122177920E1
 4.240000000000000E4    -4.876349840908205E1     1.455092729985955E1    -7.594680176909674E1     8.602301495651415E1    -7.595431776580023E1     8.608169818299751E1    -4.847506384372985E1     1.521145341684694E1
 4.330000000000000E4    -4.875845230054831E1     1.478890737893069E1    -7.570631133060003E1     8.717531710948559E1    -7.569450228874901E1     8.680368303867756E1    -4.847864684625324E1     1.561664351404606E1
 4.420000000000000E4    -4.873703722744050E1     1.509138605139539E1    -7.556548712554851E1     8.786531355891545E1    -7.560696283411528E1     8.697106764305386E1    -4.845645127328446E1     1.585590848529138E1
 4.510000000000000E4    -4.869419036372453E1     1.514591812853766E1    -7.548392951934913E1     8.592747324374344E1    -7.547854375281389E1     8.560718273519092E1    -4.845130218923403E1     1.628686866642779E1
 4.600000000000000E4    -4.875003630726481E1     1.586357484343432E1    -7.518034275060754E1     8.620194054964674E1    -7.537615292435834E1     8.630695306980361E1    -4.841001810161667E1     1.655236945221550E1
 4.690000000000000E4    -4.866833228997307E1     1.582773156355047E1    -7.509569295951762E1     8.569595713199426E1    -7.517560707255743E1     8.665254819137517E1    -4.843242358635679E1     1.699373474325114E1
 4.780000000000000E4    -4.867043442850271E1     1.610245529872086E1    -7.492050311454929E1     8.491915154977681E1    -7.481784647151242E1     8.734385584265281E1    -4.840097145507671E1     1.740073522126459E1
 4.870000000000000E4    -4.870081968504302E1     1.645358241746772E1    -7.457180932629694E1     8.661676217820009E1    -7.485116287797668E1     8.675068882813309E1    -4.839647788650745E1     1.782603224560586E1
 4.960000000000000E4    -4.863889667766828E1     1.665292339696727E1    -7.471783911466346E1     8.661601026630434E1    -7.474770463591729E1     8.591570855443688E1    -4.838787295134533E1     1.830509644425269E1
 5.050000000000000E4    -4.864425544485962E1     1.695344780595116E1    -7.441477243929776E1     8.618867347105488E1    -7.448780724711484E1     8.782826718815444E1    -4.834781413912806E1     1.838069417122714E1
 5.140000000000000E4    -4.858639945852439E1     1.697758607047027E1    -7.422943094720226E1     8.739667873560761E1    -7.430897569694393E1     8.760235648659042E1    -4.837094612808265E1     1.883142360546048E1
 5.230000000000000E4    -4.858902740294824E1     1.715190221274411E1    -7.399598002958828E1     8.770960756028400E1    -7.399430566986730E1     8.720259516120834E1    -4.830797492022842E1     1.904259948909966E1
 5.320000000000000E4    -4.860530580299911E1     1.753285368695805E1    -7.398354271450100E1     8.646221564267078E1    -7.401537390297578E1     8.710231786532447E1    -4.829689648780565E1     1.930849227069382E1
 5.410000000000000E4    -4.855454832045973E1     1.760822025114896E1    -7.371221267890986E1     8.671509036874411E1    -7.395221056894223E1     8.616840474724587E1    -4.828392527382849E1     1.965459203171906E1
 5.500000000000000E4    -4.851919165903685E1     1.780035601926898E1    -7.366199868429771E1     8.770413657825611E1    -7.360138225881063E1     8.682039188764213E1    -4.828714121726157E1     2.010913272621716E1
 5.590000000000000E4    -4.852815381396706E1     1.828833462682657E1    -7.361452483757691E1     8.613399831309191E1    -7.364667693317011E1     8.721431000424451E1    -4.825566431226803E1     2.047875572546959E1
 5.680000000000000E4    -4.854936885216694E1     1.852986320925870E1    -7.333090293891415E1     8.676365850821652E1    -7.354164946127437E1     8.743715906241881E1    -4.823611930230985E1     2.087262815039839E1
 5.770000000000000E4    -4.850732453036684E1     1.862233373303690E1    -7.330494098125266E1     8.735071480610326E1    -7.334114962939753E1     8.707372219133157E1    -4.824485875357819E1     2.130648087908330E1
 5.860000000000000E4    -4.850627663866195E1     1.907293841313889E1    -7.319390178497811E1     8.757669043914082E1    -7.318466874763585E1     8.678190744275750E1    -4.817225692179341E1     2.143373136207064E1
 5.950000000000000E4    -4.851708799925788E1     1.922246671161452E1    -7.285611206598028E1     8.734921081659998E1    -7.294772218994204E1     8.667551100105946E1    -4.821543843868636E1     2.193502152048356E1
 6.040000000000000E4    -4.849794972203981E1     1.966341511983451E1    -7.278389199766563E1     8.746989389224854E1    -7.288985324607162E1     8.704360264689581E1    -4.813561292761045E1     2.200724844808077E1
 6.130000000000000E4    -4.851519884043095E1     1.987468902950430E1    -7.275192045300253E1     8.667854239472720E1    -7.291638036415959E1     8.748323118772036E1    -4.817079035265210E1     2.254005583476226E1
 6.220000000000000E4    -4.848187476287446E1     2.007806641647920E1    -7.258276207442410E1     8.721154862908801E1    -7.272254226704337E1     8.751578748113805E1    -4.811003416121559E1     2.275871073312849E1
 6.310000000000000E4    -4.845044133000101E1     2.030051492795802E1    -7.246160150217833E1     8.734982158570226E1    -7.274685307476629E1     8.663996087451281E1    -4.805896551979159E1     2.286733681787069E1
 6.400000000000000E4    -4.841607443859100E1     2.043185126123013E1    -7.225936649302879E1     8.680353470179833E1    -7.240336024194063E1     8.726413283629620E1    -4.804774914356011E1     2.329748421317115E1
 6.490000000000000E4    -4.843165121403047E1     2.082261699518905E1    -7.229017633456208E1     8.670863897492238E1    -7.236503523145318E1     8.693378064386565E1    -4.802737286820993E1     2.363394483443272E1
 6.580000000000000E4    -4.839721104929626E1     2.111060252664677E1    -7.203041967826019E1     8.687367318837430E1    -7.195246283553105E1     8.734679773335293E1    -4.801894620879204E1     2.394880328527888E1
 6.670000000000000E4    -4.836696075939177E1     2.112653877935435E1    -7.196777507671361E1     8.754229636479377E1    -7.208797897240360E1     8.763873462935969E1    -4.796839773824290E1     2.428067046687424E1
 6.760000000000000E4    -4.837255275290495E1     2.151605604688086E1    -7.182418199054521E1     8.778148778083242E1    -7.198107856008062E1     8.756838840511060E1    -4.791733642600097E1     2.458985283597476E1
 6.850000000000000E4    -4.831888290745732E1     2.164762276619207E1    -7.167577561466663E1     8.724580223700436E1    -7.181348860063034E1     8.758283141988984E1    -4.789458108862942E1     2.479436642254293E1
 6.940000000000000E4    -4.833541646171820E1     2.192763042167069E1    -7.170394840074414E1     8.753625702435514E1    -7.175640378814772E1     8.752211063501635E1    -4.790673042125586E1     2.525776820943407E1
 7.030000000000000E4    -4.829542003114096E1     2.196361003615234E1    -7.154824396828792E1     8.809820127656440E1    -7.160831439547830E1     8.718469832044985E1    -4.788626188217002E1     2.564762094385510E1
 7.120000000000000E4    -4.832878856986792E1     2.252855980570807E1    -7.152896834103547E1     8.790344219858488E1    -7.148843526348418E1     8.717275439204649E1    -4.787480090592410E1     2.589192961064938E1
 7.210000000000000E4    -4.830158751351145E1     2.272346568535033E1    -7.132778833976101E1     8.733396560652635E1    -7.129908053056103E1     8.744041258803989E1    -4.787025846262218E1     2.643238982291923E1
 7.300000000000000E4    -4.826731971982998E1     2.285573514401624E1    -7.121864302758374E1     8.812930569980405E1    -7.133663853996708E1     8.780951920963534E1    -4.783335878988233E1     2.657256143399650E1
 7.390000000000000E4    -4.825275589567281E1     2.303495319817138E1    -7.110985390286898E1     8.743412456959204E1    -7.109085419449751E1     8.788007837293408E1    -4.779292232619436E1     2.673840047631740E1
 7.480000000000000E4    -4.822495783834904E1     2.327373063879832E1    -7.097363051794144E1     8.767808793719902E1    -7.114047414140786E1     8.667099905313231E1    -4.774405314870393E1     2.698479526125160E1
 7.570000000000000E4    -4.819791763836339E1     2.352775002597516E1    -7.092204790538771E1     8.771287547355107E1    -7.106086739880578E1     8.724695701053018E1    -4.775245810953577E1     2.747681121480667E1
 7.660000000000000E4    -4.818787856380978E1     2.383759089579639E1    -7.082995152100180E1     8.815657209416422E1    -7.090193285642482E1     8.773075658625996E1    -4.772033254157358E1     2.758437156875553E1
 7.750000000000000E4    -4.818141935537116E1     2.390011498226074E1    -7.063605674053916E1     8.744115414915581E1    -7.077537841312930E1     8.803979099281398E1    -4.767277004088782E1     2.784576760351488E1
 7.840000000000000E4    -4.817239797064105E1     2.433513466008836E1    -7.064352961295880E1     8.756344582609299E1    -7.065595290066625E1     8.769925315006012E1    -4.761328203824555E1     2.802322585407353E1
 7.930000000000000E4    -4.815422555289629E1     2.448440410885548E1    -7.046819107037471E1     8.737930962978828E1    -7.059269526025265E1     8.791624027768012E1    -4.759326232255539E1     2.822733116697175E1
 8.020000000000000E4    -4.812509935209442E1     2.461701147939095E1    -7.033193521666645E1     8.712617851609023E1    -7.052009674224527E1     8.781631564223410E1    -4.761273339350226E1     2.863344455646757E1
 8.110000000000000E4    -4.812333115583588E1     2.491695015990212E1    -7.027417437818045E1     8.753984199273320E1    -7.044003916400612E1     8.748980285719972E1    -4.755062862730316E1     2.893349697175092E1
 8.200000000000000E4    -4.806914977050133E1     2.497748203255827E1    -7.011833272841127E1     8.750729584101767E1    -7.031443539758104E1     8.753001313820985E1    -4.751410842059865E1     2.911520654132104E1
 8.290000000000000E4    -4.807323658890826E1     2.531502639082315E1    -7.014836608859164E1     8.711370860805809E1    -7.025679702429525E1     8.754623403511354E1    -4.748112016803969E1     2.931547603993495E1
 8.380000000000000E4    -4.804574460294197E1     2.534815028667869E1    -7.003260107378841E1     8.758133624317028E1    -7.015277000542694E1     8.749604328844273E1    -4.744511889303779E1     2.954694230120817E1
 8.470000000000000E4    -4.806518702507720E1     2.572193052781374E1    -6.990516388473500E1     8.790366135566605E1    -6.997965620391818E1     8.756444732391783E1    -4.745324531122773E1     3.009955502126897E1
 8.560000000000000E4    -4.802938876495513E1     2.593068434118420E1    -6.986806273862828E1     8.744656538899766E1    -6.996131799165323E1     8.746889879274958E1    -4.744151705416825E1     3.028245982899100E1
 8.650000000000000E4    -4.805655846565969E1     2.634162139617344E1    -6.975716127655741E1     8.775080931293677E1    -6.972242012876083E1     8.758162105940407E1    -4.740676964480504E1     3.047169894425624E1
 8.740000000000000E4    -4.801436421843994E1     2.647306644999167E1    -6.957365618350059E1     8.802289816932284E1    -6.978490421548624E1     8.820436317708237E1    -4.737304278678999E1     3.075372844827686E1
 8.830000000000000E4    -4.796879011033013E1     2.663175100868264E1    -6.945203495177837E1     8.742449020843920E1    -6.960758250922322E1     8.775742745868965E1    -4.737070180196354E1     3.112541382369213E1
 8.920000000000000E4    -4.793501900359817E1     2.686066595535238E1    -6.942732288567369E1     8.715191606673353E1    -6.951587344572229E1     8.782395174119381E1    -4.736131609927439E1     3.145409176392175E1
 9.010000000000000E4    -4.792418120552759E1     2.688860429025924E1    -6.933501276866257E1     8.798710421374523E1    -6.952490522716273E1     8.771271963590270E1    -4.735971390412135E1     3.177896500699415E1
 9.100000000000000E4    -4.789189605205463E1     2.726393668442611E1    -6.931379083203352E1     8.741124680134293E1    -6.942515190622198E1     8.806640272074182E1    -4.732224652975006E1     3.210502954065977E1
 9.190000000000000E4    -4.786521453058374E1     2.733989756552201E1    -6.916907949508969E1     8.795893309028857E1    -6.929974104773092E1     8.802209299416396E1    -4.728326877836361E1     3.234530916149971E1
