#  HZ   S   DB   R     50.00 
! Rohde & Schwarz Vector Network Analyzer 
! Rohde-Schwarz,ZNL6-2Port,1323001206101709,1.40.1.1-21.04.2.40
! Created: UTC 3/14/2023, 12:18:31 PM
! freq[Hz]                db:S11                  ang:S11                 db:S21                  ang:S21                 db:S12                  ang:S12                 db:S22                  ang:S22
 1.000000000000000E4    -4.850710783647184E1     2.446646697095654E1    -8.889994930470068E1     7.697213654617451E1    -8.907756390866138E1     8.792512393100695E1    -4.882636634005016E1     9.935105667886590E-1
 1.090000000000000E4    -4.829843406728180E1     2.377789996079726E1    -8.991175197144075E1     9.424801998299100E1    -8.959089709440241E1     8.631526240113871E1    -4.882809530376900E1     8.935721323312812E-1
 1.180000000000000E4    -4.823877791160021E1     2.479912325157461E1    -8.771301858176336E1     8.311227384503582E1    -8.765109875881974E1     7.515687415768163E1    -4.878958933649340E1     1.187933458261202
 1.270000000000000E4    -4.805229296046504E1     2.570372720434322E1    -8.667071409672160E1     7.714814275671512E1    -8.668127363846244E1     8.076454714560199E1    -4.881009523579073E1     1.378101641595912
 1.360000000000000E4    -4.798756194396660E1     2.695373690802293E1    -8.558589821295621E1     7.999041054631503E1    -8.663797511634459E1     8.113212965221742E1    -4.881017847448373E1     1.753121323728980
 1.450000000000000E4    -4.788395904041021E1     2.788816444492662E1    -8.565388374792143E1     8.604889541287461E1    -8.527132250979216E1     7.831919201662762E1    -4.884375430960564E1     1.639653877771323
 1.540000000000000E4    -4.775336143148906E1     2.885356009851517E1    -8.519759092223759E1     8.924443538939678E1    -8.489203641577851E1     7.745509444707646E1    -4.881948296405484E1     1.551818565603404
 1.630000000000000E4    -4.764940438162328E1     3.004678827036225E1    -8.433290249699232E1     8.267662778823470E1    -8.410273553703237E1     8.445160381892907E1    -4.885105639028529E1     1.552879228594651
 1.720000000000000E4    -4.750374848416223E1     3.088261228358155E1    -8.442186710751984E1     8.229492589551201E1    -8.452365207416817E1     8.438605627990655E1    -4.887847132777761E1     1.776803080102324
 1.810000000000000E4    -4.739698288387568E1     3.177800095150774E1    -8.313433049672969E1     8.114093656554617E1    -8.319153375408861E1     9.024417089012654E1    -4.878913205943331E1     2.493759771592866
 1.900000000000000E4    -4.731812082027004E1     3.294621134933465E1    -8.358323960715360E1     8.026090545743580E1    -8.276177794622157E1     8.633831912358058E1    -4.884251430365781E1     2.867961588812800
 1.990000000000000E4    -4.722394272671349E1     3.382686914177115E1    -8.217100938640507E1     8.436686812921522E1    -8.187485878015775E1     8.335522121092603E1    -4.891666928178715E1     2.966691707591735
 2.080000000000000E4    -4.708744618749495E1     3.469803267158590E1    -8.227145109715634E1     8.222474450941101E1    -8.116635352001337E1     8.338076181583351E1    -4.882379286325281E1     3.139442534103866
 2.170000000000000E4    -4.695513025372753E1     3.529030728224950E1    -8.187325976837283E1     8.814701023283369E1    -8.139798324092142E1     8.329729749121915E1    -4.889967423231845E1     3.735852519824773
 2.260000000000000E4    -4.685433339887337E1     3.628133814173152E1    -8.111876964961162E1     8.591022322512931E1    -8.118275306089822E1     8.390091025572448E1    -4.896965072549180E1     4.041323974013783
 2.350000000000000E4    -4.670326534518605E1     3.719373479831015E1    -8.081400116577294E1     8.446272741255068E1    -8.082152693758152E1     8.545192255736065E1    -4.891464568254310E1     4.510356552991628
 2.440000000000000E4    -4.659604860689068E1     3.788745212645951E1    -8.031346856879378E1     8.167854711078776E1    -8.071547113258981E1     8.567372587048465E1    -4.885873052420499E1     4.946611266286826
 2.530000000000000E4    -4.652694860272821E1     3.858105129759951E1    -8.008889292279642E1     8.403159957455607E1    -8.023072881281078E1     8.534136274754914E1    -4.877858767442730E1     5.264839148259594
 2.620000000000000E4    -4.638237145478800E1     3.930070564301583E1    -7.970782904583150E1     8.704080335694459E1    -8.016286493125214E1     8.621228985143894E1    -4.881297564263593E1     5.986229709840298
 2.710000000000000E4    -4.623779612544336E1     3.989518723267367E1    -7.960777469005610E1     8.282375191723686E1    -7.963054747864300E1     8.750161913342606E1    -4.870134435626805E1     6.353039075775430
 2.800000000000000E4    -4.613637898177280E1     4.055359693159482E1    -7.904793334542441E1     8.569929978052882E1    -7.914474770488833E1     8.559819212261694E1    -4.870302457421711E1     6.932213155899007
 2.890000000000000E4    -4.602652315468777E1     4.122088920753537E1    -7.891955928362668E1     8.463872668574088E1    -7.913025086787971E1     8.770883834826202E1    -4.865567502758259E1     7.567790105593045
 2.980000000000000E4    -4.593214770138093E1     4.177734581149520E1    -7.905624016945278E1     8.803408781874344E1    -7.895043145210799E1     8.547568520456230E1    -4.861121448435827E1     7.844309165682838
 3.070000000000000E4    -4.580052530306061E1     4.231314081116324E1    -7.828978329454566E1     8.646893029413597E1    -7.837918616994699E1     8.594304135124884E1    -4.861856699379678E1     8.432118443844612
 3.160000000000000E4    -4.571126454499244E1     4.295904498840199E1    -7.856352830642487E1     8.704101314275141E1    -7.820328062577467E1     8.625873167374436E1    -4.862217478255778E1     9.012659152146199
 3.250000000000000E4    -4.558540986391754E1     4.342142241967951E1    -7.812425828707988E1     8.343964392192771E1    -7.789181178442111E1     8.882300127176005E1    -4.860290976561063E1     9.575152491109577
 3.340000000000000E4    -4.548440052562832E1     4.396287621739622E1    -7.787497106032382E1     8.726241180150762E1    -7.769796294942169E1     8.673794495457403E1    -4.866960713482905E1     1.030412768286918E1
 3.430000000000000E4    -4.535242010669143E1     4.439700406325802E1    -7.745665552882230E1     8.804934777158802E1    -7.755300281825713E1     8.742806026720213E1    -4.860755681214180E1     1.064213627623877E1
 3.520000000000000E4    -4.522783843454733E1     4.475677988637680E1    -7.718591298497118E1     8.501657054273727E1    -7.735348767127783E1     8.648054604746982E1    -4.863634220782812E1     1.089672861873044E1
 3.610000000000000E4    -4.511443261869621E1     4.542736520346862E1    -7.701489923840916E1     8.593111485589473E1    -7.727345339899381E1     8.621312344984679E1    -4.862605313055013E1     1.136616815216286E1
 3.700000000000000E4    -4.500616402887373E1     4.582203460014547E1    -7.663558132083188E1     8.518877283628900E1    -7.678984474268547E1     8.601776563643691E1    -4.862887743002907E1     1.198904410786512E1
 3.790000000000000E4    -4.492231063681193E1     4.652675454621360E1    -7.650987731987638E1     8.778786799850101E1    -7.676861664519441E1     8.692063197358908E1    -4.863310168571029E1     1.249776287026813E1
 3.880000000000000E4    -4.480394346837003E1     4.676534112053012E1    -7.628743906079096E1     8.663666113124584E1    -7.617622449083582E1     8.746151159407449E1    -4.865764719760313E1     1.306378064888809E1
 3.970000000000000E4    -4.470997114708230E1     4.739074953538222E1    -7.627499557481858E1     8.578738869337650E1    -7.631725934207810E1     8.685415443425192E1    -4.864528676974338E1     1.338363031850858E1
 4.060000000000000E4    -4.459828563359159E1     4.768389515988039E1    -7.593640433054065E1     8.596285934797083E1    -7.604824282417975E1     8.545278396338720E1    -4.857181530356882E1     1.371906259768538E1
 4.150000000000000E4    -4.449990388110091E1     4.820450365977309E1    -7.581499896863522E1     8.709930294346771E1    -7.582338356438048E1     8.580703235465693E1    -4.860918045010764E1     1.399333293858604E1
 4.240000000000000E4    -4.440702956856484E1     4.860980630465541E1    -7.557067558554563E1     8.614933695969344E1    -7.582420778449934E1     8.684582006298581E1    -4.861811026916003E1     1.463274856678573E1
 4.330000000000000E4    -4.429963897038224E1     4.897163430633932E1    -7.565203586870015E1     8.757881298464029E1    -7.548067704038380E1     8.743939440856818E1    -4.859074602161535E1     1.499982574566313E1
 4.420000000000000E4    -4.421326286052651E1     4.942709996451224E1    -7.523096513787037E1     8.740231106396904E1    -7.525985652013092E1     8.701754255872972E1    -4.855227697525002E1     1.516769656330653E1
 4.510000000000000E4    -4.410640489607107E1     4.984104277102045E1    -7.517770187696159E1     8.641365119174291E1    -7.504824465972989E1     8.660794951878908E1    -4.853132816571561E1     1.565157140278009E1
 4.600000000000000E4    -4.401976690426569E1     5.040937537132253E1    -7.500641832921515E1     8.692359347554655E1    -7.495694395645606E1     8.687527551591347E1    -4.847169297700870E1     1.605007760254568E1
 4.690000000000000E4    -4.392639994909298E1     5.073614702704532E1    -7.478577253462257E1     8.608808335499609E1    -7.477797954144683E1     8.750278337439094E1    -4.850831679091944E1     1.636048483233409E1
 4.780000000000000E4    -4.383747546171179E1     5.119551559944037E1    -7.474284979357289E1     8.555789448823553E1    -7.448262151817049E1     8.680896412054381E1    -4.850243179465438E1     1.679511362835180E1
 4.870000000000000E4    -4.375026782172343E1     5.166122724321946E1    -7.423157391060734E1     8.703398369457585E1    -7.458394203689414E1     8.666415441709732E1    -4.852880314312895E1     1.749083617902324E1
 4.960000000000000E4    -4.366465332305484E1     5.207503847754980E1    -7.419764886775499E1     8.761895258235835E1    -7.437796953044580E1     8.709744503386791E1    -4.853757216088005E1     1.778655558916399E1
 5.050000000000000E4    -4.356030793417961E1     5.240961552886542E1    -7.408327652024947E1     8.683947133249372E1    -7.417877430724263E1     8.800263541697318E1    -4.849208196457773E1     1.808831213239564E1
 5.140000000000000E4    -4.346111436533262E1     5.264793614015456E1    -7.400607809154849E1     8.737968014212315E1    -7.396065097214239E1     8.682797082216996E1    -4.847622705899933E1     1.849330782446174E1
 5.230000000000000E4    -4.336653123956169E1     5.286044352579161E1    -7.377881290052063E1     8.800928312844245E1    -7.372504759012968E1     8.719111486995020E1    -4.840562734740707E1     1.867507456478643E1
 5.320000000000000E4    -4.327369271618856E1     5.323156440324399E1    -7.359714935092931E1     8.687927163241596E1    -7.368623308258452E1     8.726489292492937E1    -4.840997993938443E1     1.891930549246807E1
 5.410000000000000E4    -4.318567212198882E1     5.365024617451454E1    -7.341259704675782E1     8.721945868242292E1    -7.354240396194810E1     8.622143905217203E1    -4.838529269176946E1     1.930757727573470E1
 5.500000000000000E4    -4.308118836621649E1     5.373338644895460E1    -7.345286802742136E1     8.723706942076892E1    -7.331127883078993E1     8.668216525753428E1    -4.838176331797189E1     1.978365528268236E1
 5.590000000000000E4    -4.299663324982197E1     5.412809222411761E1    -7.335869077819409E1     8.654115468088820E1    -7.330242120568383E1     8.752303767666348E1    -4.834954121582793E1     2.007328275318336E1
 5.680000000000000E4    -4.290431539989732E1     5.447274440697769E1    -7.301323791613881E1     8.773942221442981E1    -7.321567855141275E1     8.772105217025238E1    -4.836891745805774E1     2.063962529712478E1
 5.770000000000000E4    -4.281981445040175E1     5.466715855538398E1    -7.298176815739187E1     8.839097331648361E1    -7.307862537786613E1     8.744247274139092E1    -4.833373390099291E1     2.106868059676927E1
 5.860000000000000E4    -4.274164776665372E1     5.518613020395555E1    -7.288460752713533E1     8.801945958613153E1    -7.279218510846435E1     8.782185868096140E1    -4.830411941371884E1     2.123203736015328E1
 5.950000000000000E4    -4.266015964795712E1     5.555517985337470E1    -7.253402164695531E1     8.780373074143446E1    -7.265999732122151E1     8.778168952272559E1    -4.829839526905054E1     2.170644674691447E1
 6.040000000000000E4    -4.257239153328114E1     5.581864027729151E1    -7.246190227300093E1     8.755157469184842E1    -7.250824927039355E1     8.663186810255056E1    -4.825487721988688E1     2.170624111732479E1
 6.130000000000000E4    -4.249027290497745E1     5.608592801839732E1    -7.250893864746061E1     8.680200603378414E1    -7.262088845752642E1     8.717655529614284E1    -4.822781854783617E1     2.224586361516641E1
 6.220000000000000E4    -4.240394031162242E1     5.648091247298623E1    -7.221886066118097E1     8.761781004002484E1    -7.234363970221997E1     8.734964800544321E1    -4.821200163065940E1     2.255144794190954E1
 6.310000000000000E4    -4.232439328106717E1     5.668887241127524E1    -7.215622699149557E1     8.684654229384171E1    -7.231028809200819E1     8.747886135765071E1    -4.815023174284562E1     2.264982489626265E1
 6.400000000000000E4    -4.223604575011629E1     5.689017953689608E1    -7.195825323548354E1     8.723384996571862E1    -7.198879469057414E1     8.679255417210443E1    -4.812422429807098E1     2.289458631593843E1
 6.490000000000000E4    -4.214988408515740E1     5.712394655268560E1    -7.188540523169516E1     8.685716187467773E1    -7.201647988796449E1     8.783785294632035E1    -4.813629890127986E1     2.349955445914843E1
 6.580000000000000E4    -4.206409141961668E1     5.736358714514903E1    -7.170578183716047E1     8.749981343320931E1    -7.175764649824521E1     8.715247077356483E1    -4.813406532927154E1     2.381282140964503E1
 6.670000000000000E4    -4.198853247580874E1     5.750867905074384E1    -7.165983743364039E1     8.745222708326136E1    -7.169325251217694E1     8.775068985116492E1    -4.808417934410318E1     2.414553381783955E1
 6.760000000000000E4    -4.190952781418648E1     5.775961741889080E1    -7.153933995715933E1     8.752502614770863E1    -7.161382830381069E1     8.757724162364211E1    -4.802962210569977E1     2.441765720744647E1
 6.850000000000000E4    -4.183234331749735E1     5.799312329397345E1    -7.133239946569279E1     8.752712878292833E1    -7.148371333831422E1     8.764817629121956E1    -4.802551127295424E1     2.479602712257742E1
 6.940000000000000E4    -4.175253050302945E1     5.832821528485072E1    -7.140393905869590E1     8.720161170372303E1    -7.140152886021215E1     8.710106663852687E1    -4.800774182776379E1     2.511154358425994E1
 7.030000000000000E4    -4.167584373788573E1     5.852895161522814E1    -7.118034080947170E1     8.803429957082682E1    -7.126960043298966E1     8.774444950181055E1    -4.800162036975858E1     2.556827462093873E1
 7.120000000000000E4    -4.159933543873635E1     5.895544293055296E1    -7.122279364829112E1     8.701885672172534E1    -7.119388356627653E1     8.684248486640087E1    -4.797319462305404E1     2.583755862978209E1
 7.210000000000000E4    -4.152140501752992E1     5.912265309246920E1    -7.105515808848924E1     8.790973257818671E1    -7.095252159064525E1     8.707968678782177E1    -4.796625848477592E1     2.628433129869830E1
 7.300000000000000E4    -4.144846714366011E1     5.937148188191980E1    -7.091711806162044E1     8.797056806214235E1    -7.097453254300484E1     8.778559372381737E1    -4.795043089206448E1     2.653233640203371E1
 7.390000000000000E4    -4.137378505067841E1     5.951572208632890E1    -7.076092254904918E1     8.800905048030538E1    -7.075709584786449E1     8.772410889785914E1    -4.793916272610925E1     2.688537876504869E1
 7.480000000000000E4    -4.129439344628711E1     5.970203648023111E1    -7.065871178154626E1     8.760341346920892E1    -7.068231835462994E1     8.706987856982079E1    -4.788859631389842E1     2.710433096700328E1
 7.570000000000000E4    -4.122301425136443E1     5.992261085034418E1    -7.058541725800842E1     8.736849286542007E1    -7.066102718273847E1     8.775590484061486E1    -4.787399411477515E1     2.748816639766777E1
 7.660000000000000E4    -4.114683801174597E1     6.019628569365988E1    -7.051917185122100E1     8.772029478100019E1    -7.048148202359853E1     8.753677074995686E1    -4.783974274662286E1     2.769896807962799E1
 7.750000000000000E4    -4.107450066686701E1     6.040068958307185E1    -7.035454672553827E1     8.738495264961210E1    -7.043281778528238E1     8.794909731582916E1    -4.781161642428488E1     2.791626392497513E1
 7.840000000000000E4    -4.100470406414539E1     6.050849959473818E1    -7.031473326327759E1     8.706456226322662E1    -7.024316021316446E1     8.684722765883851E1    -4.777500897974050E1     2.819776668622543E1
 7.930000000000000E4    -4.092960636843888E1     6.068557070521776E1    -7.024605655875047E1     8.725698523573723E1    -7.021892652135845E1     8.788452997039191E1    -4.774982412664593E1     2.841476628377333E1
 8.020000000000000E4    -4.086081418980417E1     6.096436782025825E1    -7.007481122244835E1     8.744070533389753E1    -7.011646077333984E1     8.762478864707739E1    -4.777052158716943E1     2.886066351058436E1
 8.110000000000000E4    -4.079497172635324E1     6.131044073705995E1    -6.997835969797187E1     8.752520295382209E1    -7.006625851924157E1     8.771597401987675E1    -4.769847259630101E1     2.898071977024107E1
 8.200000000000000E4    -4.072597001851157E1     6.146941431931273E1    -6.983354789389657E1     8.754189483869992E1    -6.990841635524647E1     8.738459497289963E1    -4.766124193609792E1     2.931057072505018E1
 8.290000000000000E4    -4.066558092871296E1     6.161851684044101E1    -6.985576779968041E1     8.758523171683395E1    -6.987177274914792E1     8.770803865658371E1    -4.762692561179687E1     2.959636698764168E1
 8.380000000000000E4    -4.058700673935792E1     6.166293487994823E1    -6.973344947275099E1     8.804254287249441E1    -6.972610621561138E1     8.739136525553320E1    -4.758604938302830E1     2.968523191725383E1
 8.470000000000000E4    -4.051557121750893E1     6.188811782397310E1    -6.953544572735296E1     8.812514733052272E1    -6.959536927670771E1     8.728453507641053E1    -4.756085217351028E1     3.004551584426640E1
 8.560000000000000E4    -4.043627671853642E1     6.197656465995404E1    -6.954890818056558E1     8.721082182276785E1    -6.957293105486119E1     8.739726065896055E1    -4.754719902141467E1     3.034740823868313E1
 8.650000000000000E4    -4.037059376893701E1     6.217898011264614E1    -6.947507022812970E1     8.810611231778773E1    -6.938641869374267E1     8.810933910516293E1    -4.749166743574047E1     3.045131880776909E1
 8.740000000000000E4    -4.030373891860517E1     6.235391638950355E1    -6.934981002590636E1     8.762503392443001E1    -6.947813854600140E1     8.775970732523746E1    -4.749045028212855E1     3.097203591867583E1
 8.830000000000000E4    -4.023533316165438E1     6.255992700666224E1    -6.919757932281870E1     8.763557834318436E1    -6.930984695419652E1     8.785113594998694E1    -4.748907464583635E1     3.124775526394298E1
 8.920000000000000E4    -4.016239172416216E1     6.265708648236213E1    -6.917445448085287E1     8.688435009388932E1    -6.919451493991279E1     8.741854368297443E1    -4.744912869476928E1     3.157766316716149E1
 9.010000000000000E4    -4.009737948163485E1     6.262020760475770E1    -6.905092228106264E1     8.783562946700403E1    -6.913070431223579E1     8.765848449174133E1    -4.744034351328452E1     3.176463984007139E1
 9.100000000000000E4    -4.002732006136488E1     6.289072927702505E1    -6.906249282169276E1     8.719400716120556E1    -6.904418179598903E1     8.774349095106849E1    -4.736321844762661E1     3.196286570321624E1
 9.190000000000000E4    -3.996449462912706E1     6.302878683102708E1    -6.893151588530120E1     8.790686439375114E1    -6.892825162622319E1     8.784436310966841E1    -4.734631402846964E1     3.223952105863104E1
