#  HZ   S   DB   R     50.00 
! Rohde & Schwarz Vector Network Analyzer 
! Rohde-Schwarz,ZNL6-2Port,1323001206101709,1.40.1.1-21.04.2.40
! Created: UTC 3/14/2023, 12:20:18 PM
! freq[Hz]                db:S11                  ang:S11                 db:S21                  ang:S21                 db:S12                  ang:S12                 db:S22                  ang:S22
 1.000000000000000E4    -4.864573726130171E1     2.528067515288138E1    -8.695923042083743E1    -9.751728198330504E1    -8.675094326477392E1    -1.018687228735705E2    -4.875224474061071E1     1.296399082428407
 1.090000000000000E4    -4.857433963239291E1     2.428666012508629E1    -8.558639497439233E1    -1.051109467708880E2    -8.605615983111042E1    -1.033180561324847E2    -4.869254903502016E1     9.179043886964214E-1
 1.180000000000000E4    -4.842143783623462E1     2.497363476952397E1    -8.584163333817688E1    -9.580221369968939E1    -8.569844786141033E1    -1.017972997652863E2    -4.872651529677603E1     9.622061834031151E-1
 1.270000000000000E4    -4.829314380976749E1     2.622927048809965E1    -8.576585836955064E1    -9.561379316695898E1    -8.670550223977142E1    -1.036957234487347E2    -4.867624760030801E1     1.158349816287150
 1.360000000000000E4    -4.820822551534398E1     2.755006519404950E1    -8.506929162870304E1    -9.157639944213793E1    -8.476095271750252E1    -1.000602182084128E2    -4.871971119133110E1     1.224718722140247
 1.450000000000000E4    -4.811771208999727E1     2.831291388884862E1    -8.468125098640786E1    -9.791507564675037E1    -8.530953726361975E1    -9.694540138729128E1    -4.874008808457617E1     1.261394144246923
 1.540000000000000E4    -4.801311722920278E1     2.936847191733655E1    -8.403184628537343E1    -9.886382828017204E1    -8.435422545121156E1    -9.584346888000147E1    -4.880287920347637E1     1.486829603655459
 1.630000000000000E4    -4.792356013706545E1     3.063966351140513E1    -8.364977190502962E1    -9.393307605738192E1    -8.354157776074766E1    -1.008620516775895E2    -4.880746505932614E1     1.576484955354019
 1.720000000000000E4    -4.780151422187786E1     3.152071690109417E1    -8.300414611286197E1    -9.914373350076083E1    -8.310638787728055E1    -9.529700899399731E1    -4.885510496643747E1     1.819113590455567
 1.810000000000000E4    -4.766108610692663E1     3.237230825566980E1    -8.344220229084884E1    -9.235126205491889E1    -8.320031419711739E1    -1.012619297997044E2    -4.882271479702810E1     2.331543991206688
 1.900000000000000E4    -4.754674505049336E1     3.318133304237040E1    -8.181315561162464E1    -9.557450189362113E1    -8.283444439378778E1    -9.753439384253836E1    -4.880453117975649E1     2.816687840138908
 1.990000000000000E4    -4.745096212337671E1     3.450220451925857E1    -8.233862825351443E1    -9.714285696170070E1    -8.246043028660193E1    -9.611353899708449E1    -4.886385036794027E1     2.644653457217649
 2.080000000000000E4    -4.731859766322104E1     3.534321116289965E1    -8.163187029282206E1    -9.549971791574244E1    -8.241531615194606E1    -9.596444681894467E1    -4.882325029846773E1     3.061226813027980
 2.170000000000000E4    -4.715668126765713E1     3.566405074587365E1    -8.115859164699863E1    -9.732582833407312E1    -8.206751724323895E1    -9.417763625794362E1    -4.886642206993421E1     3.557093854851942
 2.260000000000000E4    -4.705215940082241E1     3.658377827171692E1    -8.120806251788048E1    -9.527907891138507E1    -8.097875405539021E1    -9.367809653742050E1    -4.889134203660224E1     3.960637353118147
 2.350000000000000E4    -4.696210677712018E1     3.750535978328995E1    -8.074572201290722E1    -9.544399131473585E1    -8.042520942735818E1    -9.532651986376273E1    -4.883332708185726E1     4.572521657837444
 2.440000000000000E4    -4.687088101930623E1     3.817463912479298E1    -8.059253709726265E1    -9.110656576228476E1    -8.009953252795505E1    -9.726978099000767E1    -4.875858712613337E1     4.991661921994404
 2.530000000000000E4    -4.672454516666227E1     3.868622567468004E1    -8.019622088334191E1    -9.476112996161761E1    -7.994117035585909E1    -9.607895926618929E1    -4.871975341214529E1     5.445153269178700
 2.620000000000000E4    -4.655944400547915E1     3.919248773602948E1    -8.007453675117884E1    -9.324968909205421E1    -7.969854779245188E1    -9.583266359681339E1    -4.875472447747786E1     6.345937986862143
 2.710000000000000E4    -4.643557926764864E1     4.007052360623997E1    -7.947503069810662E1    -9.328038040841581E1    -7.984316435577084E1    -9.699450660149007E1    -4.860960017302233E1     6.363825039837880
 2.800000000000000E4    -4.632083383640599E1     4.068043479521551E1    -7.970081166213480E1    -9.397806358513941E1    -7.957197561894603E1    -9.292156962565988E1    -4.866529428403047E1     7.150045105727743
 2.890000000000000E4    -4.623731084765177E1     4.144422735401893E1    -7.919627643091067E1    -9.200156583260309E1    -7.886447065161798E1    -9.560640776008538E1    -4.864507988827637E1     7.705390649093493
 2.980000000000000E4    -4.611902808735184E1     4.194153536738904E1    -7.865611575249365E1    -9.362311893169927E1    -7.896726849428340E1    -9.371301354236959E1    -4.864131362501176E1     8.023644519109073
 3.070000000000000E4    -4.598139096987693E1     4.260298767131284E1    -7.880313969388170E1    -9.314386070866014E1    -7.868737344538926E1    -9.326838512159557E1    -4.863454471504798E1     8.511926276870909
 3.160000000000000E4    -4.587502541764913E1     4.327793690755480E1    -7.828202511858740E1    -9.398115755483117E1    -7.823474559570327E1    -9.467390050648771E1    -4.867719426975860E1     8.907322898711818
 3.250000000000000E4    -4.575492149544398E1     4.381043646719603E1    -7.809699404246595E1    -9.226603841217430E1    -7.827673152759562E1    -9.823053476910860E1    -4.866107900766301E1     9.565405711384603
 3.340000000000000E4    -4.565975387307434E1     4.441668212831897E1    -7.781780462799097E1    -9.445239951182680E1    -7.801857994603347E1    -9.502491843439081E1    -4.866373402871404E1     1.007384490851971E1
 3.430000000000000E4    -4.555717665131469E1     4.505226717862382E1    -7.782894844861498E1    -9.669749717966869E1    -7.748371757486318E1    -9.504540693210831E1    -4.865047240873097E1     1.054927756969122E1
 3.520000000000000E4    -4.542583283013442E1     4.545814844906331E1    -7.764556158377191E1    -9.284813887449909E1    -7.729677967323225E1    -9.443941274869260E1    -4.866407689793211E1     1.074254835058566E1
 3.610000000000000E4    -4.529761763091724E1     4.597008638325552E1    -7.750990043429825E1    -9.418707764374045E1    -7.726571824749247E1    -9.429441259716756E1    -4.863024286271758E1     1.119948027952812E1
 3.700000000000000E4    -4.518006677002092E1     4.634567364982670E1    -7.729206902770505E1    -9.230764450529496E1    -7.722253317695358E1    -9.458178411526539E1    -4.862277218297024E1     1.165672510280028E1
 3.790000000000000E4    -4.508443270011475E1     4.694729236045636E1    -7.677703805316639E1    -9.546682570755999E1    -7.656734867307122E1    -9.626633755667559E1    -4.865817871408036E1     1.230545348570515E1
 3.880000000000000E4    -4.497477340472464E1     4.736999029707575E1    -7.684887124225163E1    -9.372815707853471E1    -7.670958968359373E1    -9.530066431893589E1    -4.863872502775317E1     1.274695259042416E1
 3.970000000000000E4    -4.487739716957663E1     4.798658494401338E1    -7.651315935413501E1    -9.298530443082959E1    -7.633046170893658E1    -9.407146310222140E1    -4.862348177915246E1     1.314302017602134E1
 4.060000000000000E4    -4.476434774257789E1     4.827384193384035E1    -7.635963738147863E1    -9.237541957876503E1    -7.617158741775461E1    -9.430362067408157E1    -4.856624981866627E1     1.337849525567466E1
 4.150000000000000E4    -4.465966920906713E1     4.865629987601852E1    -7.625134699789898E1    -9.365851796721397E1    -7.602637707339910E1    -9.540122412453115E1    -4.858597805443462E1     1.374657640596865E1
 4.240000000000000E4    -4.454892407465842E1     4.907251991400241E1    -7.608436831267991E1    -9.276050620186686E1    -7.589091290242783E1    -9.303954703194897E1    -4.860321102534212E1     1.427491761713111E1
 4.330000000000000E4    -4.446065896827052E1     4.970125977236145E1    -7.590740635497535E1    -9.260355343116716E1    -7.571283107348677E1    -9.434709224226253E1    -4.852376268672958E1     1.466469917222205E1
 4.420000000000000E4    -4.435179024643656E1     5.003399771422819E1    -7.559587831461658E1    -9.375587133013721E1    -7.550875665732838E1    -9.313450978349876E1    -4.852415538266055E1     1.482457515166897E1
 4.510000000000000E4    -4.424700780453500E1     5.026581388265096E1    -7.524986541819115E1    -9.335935735671751E1    -7.551619215931223E1    -9.410686612347830E1    -4.849126817244659E1     1.522392944549331E1
 4.600000000000000E4    -4.414214802187473E1     5.066449304548512E1    -7.519179485324527E1    -9.262816798417195E1    -7.526932418865695E1    -9.357986776636083E1    -4.846915061841908E1     1.576691996189620E1
 4.690000000000000E4    -4.402851132862455E1     5.099140671023368E1    -7.497434892714028E1    -9.261663281537319E1    -7.507914438265050E1    -9.393857389345176E1    -4.847074439994000E1     1.594969315813684E1
 4.780000000000000E4    -4.394014946585486E1     5.143816856045365E1    -7.483221690862250E1    -9.184801747694651E1    -7.495681609793029E1    -9.406545202384225E1    -4.843000828640587E1     1.645725496171164E1
 4.870000000000000E4    -4.387503741461251E1     5.205601954466221E1    -7.497969431162983E1    -9.306541149321758E1    -7.470884420095362E1    -9.406054912722982E1    -4.845359312787703E1     1.683754092641676E1
 4.960000000000000E4    -4.377102480506280E1     5.248076903440329E1    -7.466483113237378E1    -9.266678440669202E1    -7.437207109624018E1    -9.392084702555637E1    -4.847281738648952E1     1.738671112733759E1
 5.050000000000000E4    -4.367996876544223E1     5.290889395799994E1    -7.457688995664921E1    -9.192042518193766E1    -7.437202540111375E1    -9.502621890620546E1    -4.839518049211694E1     1.764051470813741E1
 5.140000000000000E4    -4.356772925127497E1     5.302468656836577E1    -7.437128073610424E1    -9.287009454381960E1    -7.443237542382482E1    -9.388314326584825E1    -4.840410047558154E1     1.805830833846676E1
 5.230000000000000E4    -4.347723004511445E1     5.341425653867274E1    -7.420671125301459E1    -9.335780211693822E1    -7.434375161097138E1    -9.316650978705962E1    -4.837844106960613E1     1.835637103180070E1
 5.320000000000000E4    -4.339577836552549E1     5.383662222509532E1    -7.406372843494998E1    -9.288465323759456E1    -7.409427710959496E1    -9.326075291622192E1    -4.832862482348613E1     1.849781082751311E1
 5.410000000000000E4    -4.328831331868970E1     5.409850007245119E1    -7.412729852212090E1    -9.320724366571125E1    -7.397071756190974E1    -9.297534113527684E1    -4.828151786942840E1     1.881327904659265E1
 5.500000000000000E4    -4.319558694702987E1     5.441430286074547E1    -7.372459367548376E1    -9.410108937477287E1    -7.386305804239751E1    -9.329392323563739E1    -4.826694436325042E1     1.917003609484553E1
 5.590000000000000E4    -4.310407076310155E1     5.469440494751982E1    -7.358906160069564E1    -9.192971885755379E1    -7.352401735139017E1    -9.362987213310180E1    -4.825260491781840E1     1.957841299948972E1
 5.680000000000000E4    -4.301522845180897E1     5.495285365298361E1    -7.355329267049886E1    -9.306111075429050E1    -7.337054160793288E1    -9.401033901795675E1    -4.826180430721724E1     2.008780254676177E1
 5.770000000000000E4    -4.293128572336421E1     5.524799403042155E1    -7.335039236513262E1    -9.377875028497787E1    -7.325121705294380E1    -9.429086069857576E1    -4.821093219928376E1     2.041846628941924E1
 5.860000000000000E4    -4.283649984330363E1     5.557614363661864E1    -7.321575817015015E1    -9.339784097591915E1    -7.310639775430909E1    -9.313590290771337E1    -4.818448139957471E1     2.066565797250830E1
 5.950000000000000E4    -4.275878601994445E1     5.594126620041828E1    -7.327980715129507E1    -9.415511565552666E1    -7.306728054385759E1    -9.282752373783592E1    -4.822368699678725E1     2.129666572072456E1
 6.040000000000000E4    -4.266542874385667E1     5.627911285985945E1    -7.306710996364662E1    -9.341266663569148E1    -7.301179639251066E1    -9.253578943698241E1    -4.813651966295973E1     2.134281197902648E1
 6.130000000000000E4    -4.259382798220734E1     5.666075015914488E1    -7.275071347307484E1    -9.274554998996456E1    -7.266467589953155E1    -9.320790314082375E1    -4.813622709775984E1     2.180273994165541E1
 6.220000000000000E4    -4.250579643294987E1     5.700639045371802E1    -7.284753911633197E1    -9.316997252894346E1    -7.258618390819193E1    -9.308988706623668E1    -4.810477632242589E1     2.212542186494060E1
 6.310000000000000E4    -4.241058413954357E1     5.709026540131087E1    -7.273841420490031E1    -9.259383984237070E1    -7.241169978957677E1    -9.312491920400704E1    -4.808283367944229E1     2.238608310836077E1
 6.400000000000000E4    -4.232190105525432E1     5.731030789553731E1    -7.254828738347888E1    -9.243588847375348E1    -7.250464878194927E1    -9.389284894672264E1    -4.799592450047817E1     2.255038283031558E1
 6.490000000000000E4    -4.224085328626754E1     5.763776007292770E1    -7.240450248016484E1    -9.295255826981409E1    -7.237006362040003E1    -9.313355524919041E1    -4.804413342273919E1     2.314672714237349E1
 6.580000000000000E4    -4.215000691528185E1     5.801653367669512E1    -7.244184044758497E1    -9.270876042605524E1    -7.236159675007673E1    -9.313751057062439E1    -4.797729447365559E1     2.328538066677758E1
 6.670000000000000E4    -4.207005023318511E1     5.807659788213851E1    -7.217547649159319E1    -9.271333704430874E1    -7.208692996779365E1    -9.311096509771326E1    -4.794456471268290E1     2.356842606518703E1
 6.760000000000000E4    -4.199546892853078E1     5.838888984973401E1    -7.203087975881486E1    -9.232704655673480E1    -7.198118570178627E1    -9.284641475336861E1    -4.793084284579767E1     2.394214756793327E1
 6.850000000000000E4    -4.190300782723133E1     5.848818871112850E1    -7.195735047484783E1    -9.258442013154048E1    -7.180585544653069E1    -9.402601569233765E1    -4.789073705154848E1     2.413251253323087E1
 6.940000000000000E4    -4.184243393055088E1     5.893973636717762E1    -7.190349294594226E1    -9.220047472094780E1    -7.177629520509656E1    -9.359679930400257E1    -4.789589386623959E1     2.456246688532285E1
 7.030000000000000E4    -4.175379811258998E1     5.911422900941261E1    -7.171856226307769E1    -9.328474123675390E1    -7.160174615731070E1    -9.357577851899001E1    -4.790170105927498E1     2.505892376481353E1
 7.120000000000000E4    -4.168133464434711E1     5.942088722245308E1    -7.153112124955219E1    -9.236500621129424E1    -7.148075079311181E1    -9.281817348472161E1    -4.786361148312509E1     2.529436219369157E1
 7.210000000000000E4    -4.159963316948839E1     5.966036229945535E1    -7.136826510948205E1    -9.234932621889442E1    -7.141249745106968E1    -9.329287173784552E1    -4.783783218002892E1     2.562986544168231E1
 7.300000000000000E4    -4.151624386654277E1     5.975288540118976E1    -7.140595020312490E1    -9.304809347257049E1    -7.132050893329864E1    -9.340621749380568E1    -4.782974388198134E1     2.595692146714509E1
 7.390000000000000E4    -4.143931391805160E1     5.989919673816166E1    -7.124922749228001E1    -9.273320165565370E1    -7.125200917865720E1    -9.324583099811194E1    -4.781089520616753E1     2.619157855671785E1
 7.480000000000000E4    -4.136012992813107E1     6.008887667929429E1    -7.118443263383880E1    -9.287595007518262E1    -7.101680510598838E1    -9.295755766007331E1    -4.777734231977328E1     2.647167718018152E1
 7.570000000000000E4    -4.128998489580168E1     6.037635330787431E1    -7.104866560099650E1    -9.244431728816399E1    -7.100029794573442E1    -9.270371182431445E1    -4.774986110326423E1     2.686324731090924E1
 7.660000000000000E4    -4.120982198363106E1     6.052304039310189E1    -7.090892364724516E1    -9.360232557392516E1    -7.084325169627591E1    -9.288516576731141E1    -4.775035700005520E1     2.720655889657116E1
 7.750000000000000E4    -4.113761031496183E1     6.069508390170849E1    -7.087761566930190E1    -9.243221233746819E1    -7.080526888942119E1    -9.367864063672843E1    -4.767271136385603E1     2.732113533046191E1
 7.840000000000000E4    -4.105444979343636E1     6.088742615767589E1    -7.080902431883291E1    -9.201689661530834E1    -7.070415311431240E1    -9.244830482870826E1    -4.767096520844024E1     2.761147352286912E1
 7.930000000000000E4    -4.098666883719039E1     6.114482543753799E1    -7.065762851290336E1    -9.191835807190411E1    -7.060689923005629E1    -9.329939622512008E1    -4.765456783870412E1     2.799080874832056E1
 8.020000000000000E4    -4.091807090905153E1     6.136286830525516E1    -7.062429371480020E1    -9.151134534548618E1    -7.047369769953009E1    -9.273720730505848E1    -4.763446184363508E1     2.820308011228839E1
 8.110000000000000E4    -4.084914356934294E1     6.161158753776013E1    -7.050761694813689E1    -9.219023653769264E1    -7.038663893591482E1    -9.283913182799870E1    -4.760039716543038E1     2.859793112108404E1
 8.200000000000000E4    -4.077566470919361E1     6.170878319282065E1    -7.035096706573795E1    -9.248413154857519E1    -7.026442103922500E1    -9.295170502583009E1    -4.755706267615318E1     2.881395237821861E1
 8.290000000000000E4    -4.070933644253701E1     6.193843395508917E1    -7.028520897466412E1    -9.187296556299593E1    -7.014854693386869E1    -9.269076905241154E1    -4.753601716571890E1     2.915794654139477E1
 8.380000000000000E4    -4.062865100924256E1     6.199908759668460E1    -7.022370647554709E1    -9.241541845335084E1    -7.013988390395834E1    -9.318176611553294E1    -4.747769628949488E1     2.921043556088119E1
 8.470000000000000E4    -4.056920349156748E1     6.230663525435829E1    -7.013251305638585E1    -9.229115458339554E1    -7.003652903395499E1    -9.267206715669634E1    -4.746872715001980E1     2.954820304836791E1
 8.560000000000000E4    -4.049618518924990E1     6.249214783820039E1    -7.002545250021454E1    -9.204004247505911E1    -6.991394136909943E1    -9.243102048278581E1    -4.743691005489238E1     2.974502938786836E1
 8.650000000000000E4    -4.042465845630097E1     6.260762989744943E1    -6.999901133790489E1    -9.261354678123654E1    -6.997387103194302E1    -9.317191142821190E1    -4.744082952847855E1     3.011379557882153E1
 8.740000000000000E4    -4.035741772900917E1     6.279763963965975E1    -6.990034874670434E1    -9.275657194308141E1    -6.965381953486882E1    -9.288665625021545E1    -4.743780038602496E1     3.056286071716149E1
 8.830000000000000E4    -4.029439076810593E1     6.296567432343753E1    -6.985843436083721E1    -9.249457383677074E1    -6.966452549263376E1    -9.279976709017072E1    -4.740249377425688E1     3.076501561137900E1
 8.920000000000000E4    -4.021940737104123E1     6.300480875754004E1    -6.965905644193323E1    -9.228322253622643E1    -6.963621368809937E1    -9.220462018928275E1    -4.737173331149692E1     3.122892341572108E1
 9.010000000000000E4    -4.015369613099472E1     6.311450325084259E1    -6.971437619760250E1    -9.188054316780939E1    -6.950934127182815E1    -9.282563015059623E1    -4.737917670954485E1     3.147106036413516E1
 9.100000000000000E4    -4.008691317887599E1     6.331105772189374E1    -6.945978934664987E1    -9.218891385777107E1    -6.935484774253484E1    -9.258646208551289E1    -4.732771601291567E1     3.165052507207569E1
 9.190000000000000E4    -4.001940041594717E1     6.343046502189595E1    -6.948300464903416E1    -9.237799258998403E1    -6.935763472672429E1    -9.340187835677800E1    -4.729086531385144E1     3.180419819258594E1
