#  HZ   S   DB   R     50.00 
! Rohde & Schwarz Vector Network Analyzer 
! Rohde-Schwarz,ZNL6-2Port,1323001206101709,1.40.1.1-21.04.2.40
! Created: UTC 3/14/2023, 9:59:02 AM
! freq[Hz]                db:S11                  ang:S11                 db:S21                  ang:S21                 db:S12                  ang:S12                 db:S22                  ang:S22
 1.000000000000000E4    -5.091262392168026E1     6.539355802504343      -8.708959199141145E1    -1.073623658888210E2    -8.806799935215284E1    -1.090582627371522E2    -4.890284168462085E1     2.514264990694529
 1.090000000000000E4    -5.075503277093609E1     3.875509732564841      -8.560846782364068E1    -1.034613407374272E2    -8.678443305380624E1    -9.766579212669760E1    -4.877759987914122E1     2.402921657147619
 1.180000000000000E4    -5.071311177586797E1     3.948477928112725      -8.649899081281933E1    -1.011253094199235E2    -8.634545522357368E1    -9.623787427659313E1    -4.879478833248156E1     2.587786429351778
 1.270000000000000E4    -5.070631213917383E1     4.307544624439001      -8.545692774374416E1    -9.799657293488347E1    -8.634207947980389E1    -9.482402545745305E1    -4.881222512606737E1     2.858335507071309
 1.360000000000000E4    -5.068080128206005E1     4.285018957801311      -8.582165548186823E1    -9.340062606981085E1    -8.490938176959075E1    -1.007609970469304E2    -4.882706799823190E1     3.241476746987008
 1.450000000000000E4    -5.073082529693828E1     4.635164437452870      -8.442772581004975E1    -1.015789730146276E2    -8.468851519977987E1    -9.451425055853088E1    -4.883099302690064E1     3.089999054633651
 1.540000000000000E4    -5.071034021288612E1     4.699851535657553      -8.466323998149687E1    -1.018937901984566E2    -8.471591503950698E1    -9.408485230010059E1    -4.889032779511140E1     3.349242270716002
 1.630000000000000E4    -5.076130899915172E1     5.662181666713453      -8.450488016152248E1    -9.777053312434091E1    -8.368625438939992E1    -1.001499900572343E2    -4.885774210507122E1     3.505982292694466
 1.720000000000000E4    -5.067454595833073E1     5.906579853895741      -8.324166357627497E1    -9.597339260700389E1    -8.270887593139754E1    -9.681951734437868E1    -4.885328692661634E1     3.546176510723177
 1.810000000000000E4    -5.065291420538234E1     6.261611156587526      -8.319965149713939E1    -9.433469965974700E1    -8.329816913409850E1    -9.923354235873111E1    -4.885583681062667E1     3.934795644227973
 1.900000000000000E4    -5.068951296436996E1     6.683424949829082      -8.174081450414336E1    -9.632439389929341E1    -8.274941402176459E1    -1.010532547756407E2    -4.887720337833926E1     4.449091747800857
 1.990000000000000E4    -5.074301151409681E1     7.428640889448839      -8.226503534881940E1    -9.729802296891627E1    -8.265519196247426E1    -9.458527268252770E1    -4.888691910760804E1     4.571346205945770
 2.080000000000000E4    -5.072526062716448E1     7.843826011016031      -8.162503534116982E1    -9.449097570678231E1    -8.225672335025729E1    -9.332030212324428E1    -4.881752030594381E1     4.623571864989558
 2.170000000000000E4    -5.067900329120717E1     8.040818559206381      -8.128938125076110E1    -9.817313442089242E1    -8.226127979882277E1    -9.378695060171702E1    -4.886804285121862E1     5.409017441045311
 2.260000000000000E4    -5.068927100499241E1     8.376662892626905      -8.135979289425690E1    -9.693292875533717E1    -8.130236083222610E1    -9.403190503492819E1    -4.891578592470425E1     5.699850365932037
 2.350000000000000E4    -5.069203782239615E1     8.874553490990744      -8.132541863458971E1    -9.399472279631715E1    -8.083067736341938E1    -9.593885731835431E1    -4.883801943310254E1     6.212065972400071
 2.440000000000000E4    -5.062568763028552E1     9.158327655242278      -8.082864785121073E1    -9.089535974980814E1    -8.066513295861519E1    -9.627740604402406E1    -4.878289589744458E1     6.498034100347509
 2.530000000000000E4    -5.058509205290421E1     9.078256886429941      -8.074971824014766E1    -9.558460036193313E1    -8.035052758096326E1    -9.672571763122517E1    -4.879639286618598E1     7.038671317436335
 2.620000000000000E4    -5.057586122319158E1     9.866123147257653      -8.013257378268085E1    -9.625667493090334E1    -7.999819046041553E1    -9.618384800431551E1    -4.885826268929274E1     7.704211048270116
 2.710000000000000E4    -5.046727465356873E1     1.009432271935560E1    -7.951758336030889E1    -9.497096487856058E1    -8.018080298321750E1    -9.555544745612310E1    -4.876400227306205E1     7.702277079489654
 2.800000000000000E4    -5.047690471009257E1     1.038829215805714E1    -7.976482192342800E1    -9.388254210160008E1    -8.011549846769582E1    -9.268307856684866E1    -4.877864138219352E1     8.293169255804255
 2.890000000000000E4    -5.048975880306624E1     1.079069149599409E1    -7.927880030954827E1    -9.447547498762177E1    -7.936249316398533E1    -9.596000194616701E1    -4.873810077752676E1     8.808709140825910
 2.980000000000000E4    -5.048568712965061E1     1.117016808330226E1    -7.884725153408007E1    -9.554936451868716E1    -7.914628506003386E1    -9.438314781940460E1    -4.875602443096692E1     9.083067627444665
 3.070000000000000E4    -5.046485855626536E1     1.173618383449179E1    -7.902746264281295E1    -9.509760193109953E1    -7.891364077343989E1    -9.431704176906155E1    -4.872921437926831E1     9.417451228071585
 3.160000000000000E4    -5.047215269943976E1     1.175408647274466E1    -7.841030463847014E1    -9.623674945933784E1    -7.870680357899838E1    -9.447868324160896E1    -4.877163001696437E1     9.806778159378839
 3.250000000000000E4    -5.045446868518349E1     1.221679517397674E1    -7.833834504595590E1    -9.356144677579732E1    -7.864114889392424E1    -9.691775085493367E1    -4.876462876168204E1     1.054005918302033E1
 3.340000000000000E4    -5.044770155427797E1     1.232008703780218E1    -7.786705650268566E1    -9.562880884207325E1    -7.825560673914700E1    -9.384823189911076E1    -4.873048731761928E1     1.092546913632757E1
 3.430000000000000E4    -5.042355072852804E1     1.257903730406766E1    -7.818987163736621E1    -9.665375980658125E1    -7.786304405893208E1    -9.507885804293844E1    -4.875049858493166E1     1.124859762928968E1
 3.520000000000000E4    -5.041235287243234E1     1.288447718598262E1    -7.771020239378147E1    -9.301089041142298E1    -7.782616866867156E1    -9.444507477107281E1    -4.872774258879218E1     1.149849562681607E1
 3.610000000000000E4    -5.038323776051776E1     1.336739495383250E1    -7.725708573736898E1    -9.365332732608471E1    -7.746037773527850E1    -9.477658460614087E1    -4.870495357585538E1     1.179072204495788E1
 3.700000000000000E4    -5.036158775176890E1     1.369092325843433E1    -7.740031793144227E1    -9.288640910930069E1    -7.749894050455622E1    -9.205559441799647E1    -4.868607443726199E1     1.225583063063176E1
 3.790000000000000E4    -5.032939050456945E1     1.399239885727806E1    -7.710320173739512E1    -9.538313094781995E1    -7.699962540433150E1    -9.426519936355420E1    -4.867005564776193E1     1.271903319199786E1
 3.880000000000000E4    -5.030378948327062E1     1.428581701068905E1    -7.721445754284660E1    -9.465063893358321E1    -7.699009921020212E1    -9.444916162253550E1    -4.868330038069405E1     1.327372887237175E1
 3.970000000000000E4    -5.030697816465137E1     1.460907362021294E1    -7.667437617249986E1    -9.317204982127841E1    -7.668626134643618E1    -9.304596765412923E1    -4.869211416950749E1     1.352909804617676E1
 4.060000000000000E4    -5.025859221838168E1     1.472395603303564E1    -7.674916684164680E1    -9.153632942058842E1    -7.656504710667801E1    -9.303112968301417E1    -4.861096978588457E1     1.375398936461894E1
 4.150000000000000E4    -5.027327189226064E1     1.519549637729594E1    -7.644218315915830E1    -9.327644192698334E1    -7.638716398500209E1    -9.406323428400580E1    -4.863422390362092E1     1.399476893966689E1
 4.240000000000000E4    -5.023282859057047E1     1.564824126110707E1    -7.629455005335726E1    -9.455970589358485E1    -7.623292642138465E1    -9.358402113080614E1    -4.861720898989790E1     1.450128775340746E1
 4.330000000000000E4    -5.022507011586984E1     1.598589342339330E1    -7.598360377575183E1    -9.297884771723936E1    -7.609012196577149E1    -9.392592251749458E1    -4.857871923543869E1     1.494118931826675E1
 4.420000000000000E4    -5.021300834600059E1     1.627022074137688E1    -7.577337596483783E1    -9.402881178859626E1    -7.589819866858703E1    -9.389541049163869E1    -4.855379453021548E1     1.515800994194033E1
 4.510000000000000E4    -5.016300981776651E1     1.646324424277618E1    -7.555937086358867E1    -9.380211207002672E1    -7.568813070238765E1    -9.324357611909879E1    -4.854367351868530E1     1.559673360749771E1
 4.600000000000000E4    -5.012539501340240E1     1.686044889293281E1    -7.552852207962940E1    -9.339230015605736E1    -7.537772707745876E1    -9.261289775141198E1    -4.849263922272583E1     1.594145063208282E1
 4.690000000000000E4    -5.008593835057592E1     1.693793661980576E1    -7.531641007824389E1    -9.252695801717221E1    -7.553627510604636E1    -9.347571023203683E1    -4.851386651051358E1     1.629583286703447E1
 4.780000000000000E4    -5.011090534269321E1     1.742771518108882E1    -7.501305435724588E1    -9.261652466259955E1    -7.531328328697900E1    -9.331235209272380E1    -4.850192442392864E1     1.683765372129024E1
 4.870000000000000E4    -5.009278162693804E1     1.782893109439421E1    -7.518092468823090E1    -9.231730588489705E1    -7.505278312603139E1    -9.359296034971425E1    -4.852183373985287E1     1.739829867785259E1
 4.960000000000000E4    -5.009723519630455E1     1.819817313146499E1    -7.486632721812705E1    -9.392582864344925E1    -7.474811442934936E1    -9.230832506382913E1    -4.851591057137262E1     1.780567374287899E1
 5.050000000000000E4    -5.007765737077946E1     1.859980403225571E1    -7.467283922125195E1    -9.271551067922853E1    -7.472659747116866E1    -9.474283168788509E1    -4.844529693891309E1     1.792607095371513E1
 5.140000000000000E4    -5.001432152538553E1     1.857259600048765E1    -7.470172875912786E1    -9.432673148420375E1    -7.462988776743119E1    -9.277590675095924E1    -4.842196587372717E1     1.829381990179052E1
 5.230000000000000E4    -5.000729778937470E1     1.899068030468090E1    -7.449808476639328E1    -9.509194989751714E1    -7.445946750388123E1    -9.278715509837853E1    -4.838981454355282E1     1.851994041480260E1
 5.320000000000000E4    -5.002106986112219E1     1.946312060774051E1    -7.431002108538618E1    -9.248208551556040E1    -7.433292578473555E1    -9.341039092733615E1    -4.836134855522350E1     1.888286473650099E1
 5.410000000000000E4    -4.998517945775515E1     1.961281204503918E1    -7.425187440808551E1    -9.280422016613217E1    -7.423420071186814E1    -9.163871736498470E1    -4.830455528013756E1     1.913402236060631E1
 5.500000000000000E4    -4.990666190363375E1     1.979078549448132E1    -7.395112929000011E1    -9.386365051727597E1    -7.428318086196595E1    -9.256316689851106E1    -4.830905280725153E1     1.946928607354129E1
 5.590000000000000E4    -4.990761615361226E1     2.018545193348343E1    -7.382355277098731E1    -9.252404419565931E1    -7.385934959147421E1    -9.324590991276513E1    -4.829078960949475E1     1.993899245832063E1
 5.680000000000000E4    -4.992726171247269E1     2.070685835949512E1    -7.376915939101154E1    -9.340042582115083E1    -7.368030180356477E1    -9.305146288586528E1    -4.831050507893288E1     2.036620899425709E1
 5.770000000000000E4    -4.989745485604072E1     2.084705924315563E1    -7.359387739515516E1    -9.359027080176774E1    -7.358899442084071E1    -9.297105049931976E1    -4.825245928143732E1     2.084779044583970E1
 5.860000000000000E4    -4.988081206017488E1     2.135267426465430E1    -7.346725267623242E1    -9.275258035697078E1    -7.351391546214644E1    -9.308765477501213E1    -4.820480592033145E1     2.098905192893312E1
 5.950000000000000E4    -4.986937805819110E1     2.160066749574169E1    -7.335012723068034E1    -9.333363616270337E1    -7.345425206220062E1    -9.312410079643395E1    -4.822796690987461E1     2.147869592210133E1
 6.040000000000000E4    -4.981986344632694E1     2.186656543356591E1    -7.316861124892898E1    -9.357838675724027E1    -7.331184828556093E1    -9.231007944133266E1    -4.815931944108128E1     2.149584528154241E1
 6.130000000000000E4    -4.983145601832250E1     2.222914660380321E1    -7.308677420736993E1    -9.196060705036174E1    -7.292020325160058E1    -9.265197992765061E1    -4.819797169902996E1     2.222025023211330E1
 6.220000000000000E4    -4.981148707826814E1     2.260020694898038E1    -7.294014088950816E1    -9.281514664129024E1    -7.284751939003800E1    -9.269169048553782E1    -4.814783436127351E1     2.233977759450737E1
 6.310000000000000E4    -4.975096235001524E1     2.260427027456075E1    -7.288313714913232E1    -9.272664383686568E1    -7.275570675445012E1    -9.269339308359332E1    -4.814070789900710E1     2.276407557889951E1
 6.400000000000000E4    -4.969597377084492E1     2.283885229315034E1    -7.280481940080196E1    -9.309523049321167E1    -7.270829896721590E1    -9.273869659765809E1    -4.808993139157131E1     2.294193225843902E1
 6.490000000000000E4    -4.973426211618941E1     2.327539318265372E1    -7.256905160237552E1    -9.228822922805485E1    -7.254163056385221E1    -9.291474104529483E1    -4.808456604288285E1     2.334096958134738E1
 6.580000000000000E4    -4.970382444383594E1     2.360241972613534E1    -7.247055273352589E1    -9.265038138305695E1    -7.264586892830457E1    -9.287142209540096E1    -4.809048690008086E1     2.373733041097691E1
 6.670000000000000E4    -4.969620910316087E1     2.386309886437492E1    -7.242342185620808E1    -9.309131663992105E1    -7.231302902394937E1    -9.293264785537410E1    -4.800650032058090E1     2.387412247668533E1
 6.760000000000000E4    -4.969005613141982E1     2.420956715738339E1    -7.224506621097727E1    -9.343509266411411E1    -7.227583849568316E1    -9.252061360903693E1    -4.800434431528265E1     2.431873006811791E1
 6.850000000000000E4    -4.968210744240108E1     2.456753266216676E1    -7.228092119427804E1    -9.245024885546320E1    -7.216857967693089E1    -9.299736940474475E1    -4.796918233374063E1     2.458048787993460E1
 6.940000000000000E4    -4.967369230491609E1     2.493662036490910E1    -7.206126749474096E1    -9.202845844978569E1    -7.205102565556234E1    -9.244467905829725E1    -4.797393051035351E1     2.491642014557472E1
 7.030000000000000E4    -4.963201661495706E1     2.502261345883387E1    -7.195998029482648E1    -9.269050040331136E1    -7.194752262234982E1    -9.287319418082016E1    -4.795046695519970E1     2.532345754285220E1
 7.120000000000000E4    -4.960898600181476E1     2.539049974317616E1    -7.174807592924496E1    -9.243379327890142E1    -7.172385222820692E1    -9.184331775208723E1    -4.792381114819407E1     2.550855748548680E1
 7.210000000000000E4    -4.963147425229970E1     2.594477115397715E1    -7.164282241472674E1    -9.253964205976352E1    -7.178515787353903E1    -9.262439368898693E1    -4.793340635028319E1     2.608627500543867E1
 7.300000000000000E4    -4.959191182041414E1     2.609983725953676E1    -7.150935513488049E1    -9.279844903835328E1    -7.161591280814670E1    -9.248637613364315E1    -4.793482656841118E1     2.635013858927163E1
 7.390000000000000E4    -4.958201413144999E1     2.613692799670983E1    -7.151562073316019E1    -9.239467283587327E1    -7.148328583212609E1    -9.237846296720741E1    -4.784623898542500E1     2.639260459619578E1
 7.480000000000000E4    -4.958142582523361E1     2.658954821423650E1    -7.138544051805350E1    -9.234806087912769E1    -7.133447267600593E1    -9.211865280002951E1    -4.785093521241782E1     2.686242110524564E1
 7.570000000000000E4    -4.952288213808630E1     2.682286346084405E1    -7.122058447249370E1    -9.299505961745504E1    -7.118830316878396E1    -9.281941482743839E1    -4.784912170873589E1     2.733654161729871E1
 7.660000000000000E4    -4.950142165307621E1     2.713203226608173E1    -7.115931863567164E1    -9.335337398372054E1    -7.121498639598384E1    -9.276276730434881E1    -4.781962547049994E1     2.745200087255490E1
 7.750000000000000E4    -4.949363208240037E1     2.727447794080296E1    -7.117661984398045E1    -9.234154442794069E1    -7.108636120021858E1    -9.267342940325261E1    -4.776969852751593E1     2.778746213048828E1
 7.840000000000000E4    -4.949819939195812E1     2.783098052082287E1    -7.094846655574017E1    -9.238162868466807E1    -7.108338051922013E1    -9.208169606640136E1    -4.774811499750616E1     2.797528462011902E1
 7.930000000000000E4    -4.945099956745356E1     2.797999833958080E1    -7.088807481415907E1    -9.215162542219085E1    -7.083330955325293E1    -9.317443512771116E1    -4.770611242181559E1     2.807519354710758E1
 8.020000000000000E4    -4.941371782354633E1     2.821391919016450E1    -7.081257959856597E1    -9.228351576337677E1    -7.080802742580441E1    -9.222190998301494E1    -4.769665181692474E1     2.845916369351737E1
 8.110000000000000E4    -4.943540138284688E1     2.858788848275313E1    -7.072548756932515E1    -9.211477179323317E1    -7.066183028249179E1    -9.242252907631473E1    -4.764638625701421E1     2.866423377762818E1
 8.200000000000000E4    -4.936323675223274E1     2.863746837681075E1    -7.060795321284377E1    -9.216215200219625E1    -7.057993416728139E1    -9.246834668019088E1    -4.761855968240220E1     2.905703060647459E1
 8.290000000000000E4    -4.936147672071216E1     2.889388765906922E1    -7.042445732738030E1    -9.170587643255365E1    -7.041521756833032E1    -9.188456165220275E1    -4.761342325567930E1     2.938907972486437E1
 8.380000000000000E4    -4.932128981450668E1     2.908638742253216E1    -7.045005322449681E1    -9.286984986201306E1    -7.044514441247654E1    -9.268905414826696E1    -4.757075744664593E1     2.952517049928768E1
 8.470000000000000E4    -4.930895932045635E1     2.935616251511074E1    -7.033090411412272E1    -9.268193305868044E1    -7.028342438003733E1    -9.153835141974709E1    -4.754468503277327E1     2.982274541357633E1
 8.560000000000000E4    -4.928037449959317E1     2.960730344354663E1    -7.016160191507906E1    -9.230893779168642E1    -7.014725390971046E1    -9.228958732768906E1    -4.751633734484823E1     3.012381708575201E1
 8.650000000000000E4    -4.926096464508417E1     2.995588023168899E1    -7.011717909340807E1    -9.268438004961109E1    -7.022956393381162E1    -9.236301084165976E1    -4.749801767956431E1     3.040512726310575E1
 8.740000000000000E4    -4.922021460903417E1     3.005191745944269E1    -7.011467084328413E1    -9.242956396296999E1    -6.999842118831177E1    -9.264426786379015E1    -4.747015660771861E1     3.067661062906789E1
 8.830000000000000E4    -4.919642700782724E1     3.032615027310180E1    -6.997683511748296E1    -9.218688212093240E1    -6.995069860452240E1    -9.190958743561438E1    -4.744787411340966E1     3.090260977349491E1
 8.920000000000000E4    -4.915649312099110E1     3.055192708007338E1    -6.991274708444047E1    -9.224453714974288E1    -6.991436873647602E1    -9.208020125270127E1    -4.745163501843876E1     3.146692283770078E1
 9.010000000000000E4    -4.910625574174139E1     3.049074911515067E1    -6.983680455090234E1    -9.258340060282548E1    -6.979577458478860E1    -9.250506469389315E1    -4.743305047312533E1     3.173793566867622E1
 9.100000000000000E4    -4.910750058032598E1     3.100630750733032E1    -6.956734316399314E1    -9.184118790488536E1    -6.965775872756356E1    -9.191142904580312E1    -4.736199689484233E1     3.178885126093248E1
 9.190000000000000E4    -4.906126852166857E1     3.106211287250760E1    -6.963130329973340E1    -9.217645468032501E1    -6.964160787439985E1    -9.249331267490709E1    -4.734938445099733E1     3.200488860444399E1
