#  HZ   S   DB   R     50.00 
! Rohde & Schwarz Vector Network Analyzer 
! Rohde-Schwarz,ZNL6-2Port,1323001206101709,1.40.1.1-21.04.2.40
! Created: UTC 3/14/2023, 12:21:34 PM
! freq[Hz]                db:S11                  ang:S11                 db:S21                  ang:S21                 db:S12                  ang:S12                 db:S22                  ang:S22
 1.000000000000000E4    -6.177434553745941E1    -5.679918112455974E1    -9.866799830007308E-4    1.900211024474728E-2    1.109353966012014E-3    6.494619853942504E-2   -6.523914381596198E1    -6.343007080424024E1
 1.090000000000000E4    -6.244102526071088E1    -5.184407939078165E1    -7.393352794931097E-4    1.199781958267046E-2    9.306762829663815E-4    5.362886102984347E-2   -6.759233213051476E1    -5.516941064392019E1
 1.180000000000000E4    -6.368578319771298E1    -4.457713407679204E1    -7.099683054413996E-4    5.391145427252874E-3    7.986416551831511E-4    4.290676297139103E-2   -6.966084666589821E1    -4.467942238978561E1
 1.270000000000000E4    -6.549978177460054E1    -3.709721041365101E1    -8.845145104387756E-4    1.069965806104553E-3    9.999303879462838E-4    3.101354901098268E-2   -7.116656397562940E1    -2.679963979678346E1
 1.360000000000000E4    -6.641865121264972E1    -2.157582380211618E1    -1.045543180606279E-3   -5.453761645901133E-3    8.276445577572904E-4    2.021794418375577E-2   -7.207419841798186E1    -1.110499022124122
 1.450000000000000E4    -6.717514456998913E1    -8.434657971920027      -9.730878110443030E-4   -1.248581382915839E-2    5.463452841376131E-4    9.835967551048376E-3   -7.128821268273944E1     2.497172881801833E1
 1.540000000000000E4    -6.705252872708299E1     9.767490361684274      -1.283971732354711E-3   -2.047945308133666E-2    1.151116364683761E-4   -9.030709031516960E-4   -6.914004074006708E1     4.483585000421142E1
 1.630000000000000E4    -6.686497511088515E1     2.422567400654762E1    -1.382238369174749E-3   -2.756453869948713E-2   -3.960941659903870E-5   -9.759548034964316E-3   -6.684680476486130E1     5.594536723458954E1
 1.720000000000000E4    -6.487842736270144E1     3.920535768127036E1    -1.763341509372398E-3   -3.390180938339026E-2   -4.102956386972345E-4   -1.939591616564036E-2   -6.510029975799947E1     6.374892146972116E1
 1.810000000000000E4    -6.389797091953723E1     4.592878516305580E1    -1.838506615090217E-3   -4.231111204892118E-2   -7.474610474051621E-4   -2.846932344572177E-2   -6.344737147745498E1     6.781196723565766E1
 1.900000000000000E4    -6.272175540786062E1     5.274913420400571E1    -1.973627978642140E-3   -4.997217565798691E-2   -9.492482560167937E-4   -3.624076755556474E-2   -6.174216279498694E1     6.935556225758333E1
 1.990000000000000E4    -6.142284647118069E1     6.108145702038584E1    -2.506810847192050E-3   -5.641506799997604E-2   -1.033181134040992E-3   -4.496177164149742E-2   -6.060375293387754E1     7.110783540967566E1
 2.080000000000000E4    -6.023974123686854E1     6.385109154151390E1    -2.723932979660778E-3   -6.433586755824279E-2   -1.338200172987597E-3   -5.446787619478825E-2   -5.966897580806816E1     7.299582609876217E1
 2.170000000000000E4    -5.928342829282062E1     6.543006014088995E1    -2.772500424647616E-3   -7.194782643569075E-2   -1.513754957418000E-3   -6.106214998682626E-2   -5.851555858533353E1     7.363789975076988E1
 2.260000000000000E4    -5.842138167731378E1     6.795882645534122E1    -2.872320867343832E-3   -7.938661508656317E-2   -1.679297397992819E-3   -6.915641198136248E-2   -5.767092536605301E1     7.433072389090208E1
 2.350000000000000E4    -5.748392032449591E1     7.043124959380188E1    -3.115860252750549E-3   -8.617607842904336E-2   -1.890079995445575E-3   -7.634884826317422E-2   -5.685513584169836E1     7.507618277176960E1
 2.440000000000000E4    -5.673483768183168E1     7.053212162455969E1    -3.135815332133069E-3   -9.364942817363443E-2   -2.059866229302918E-3   -8.454873799407069E-2   -5.610401928269979E1     7.572902193354675E1
 2.530000000000000E4    -5.598583884854665E1     7.182857570913022E1    -3.421773497507310E-3   -1.003444402587113E-1   -2.351712677866236E-3   -9.296004180965847E-2   -5.551141727602694E1     7.615354432762467E1
 2.620000000000000E4    -5.534055075518118E1     7.313782448892037E1    -3.685484156270820E-3   -1.069887660688118E-1   -2.406895177273681E-3   -1.002178645045661E-1   -5.492511913727436E1     7.609049967831660E1
 2.710000000000000E4    -5.474145710175872E1     7.365243250886446E1    -3.750092742877519E-3   -1.133347937167082E-1   -2.681208524372784E-3   -1.074447144250509E-1   -5.431888668840930E1     7.663709791887692E1
 2.800000000000000E4    -5.418485313611075E1     7.361086544876265E1    -3.800966810705192E-3   -1.206347711133566E-1   -2.811753883747083E-3   -1.138788972273146E-1   -5.378580532856660E1     7.675383272966715E1
 2.890000000000000E4    -5.370033284567315E1     7.485080751934343E1    -4.086437244992560E-3   -1.275858102263955E-1   -3.339061248302677E-3   -1.213349292909210E-1   -5.333448830322716E1     7.778512931820528E1
 2.980000000000000E4    -5.322797737669931E1     7.525031964927605E1    -4.179742106459350E-3   -1.346089393075590E-1   -3.412575161104009E-3   -1.278209872987183E-1   -5.285465229236975E1     7.775037000891534E1
 3.070000000000000E4    -5.281154354499692E1     7.584503578487380E1    -4.479114496073698E-3   -1.411410448076437E-1   -3.637904241153117E-3   -1.345080220066762E-1   -5.236162651297131E1     7.743840673017978E1
 3.160000000000000E4    -5.235339226692682E1     7.631372262889202E1    -4.551483488044891E-3   -1.476513686142273E-1   -3.738137178299593E-3   -1.419055100891007E-1   -5.199161634861718E1     7.747553811403820E1
 3.250000000000000E4    -5.195672180227984E1     7.719338143504693E1    -4.881985647347648E-3   -1.537152003245008E-1   -3.822305693507679E-3   -1.484560681631809E-1   -5.163483773446821E1     7.829099531668385E1
 3.340000000000000E4    -5.159403462524335E1     7.753113121902807E1    -5.024761430636304E-3   -1.607963997048066E-1   -4.015916521391986E-3   -1.545363038935967E-1   -5.125712375590074E1     7.870836357105146E1
 3.430000000000000E4    -5.125168239608779E1     7.705844089756550E1    -4.917675883964912E-3   -1.673772627669824E-1   -4.073943561985599E-3   -1.617233244637668E-1   -5.097048723327215E1     7.843973671030314E1
 3.520000000000000E4    -5.092273747728041E1     7.737820239854520E1    -5.221813328338266E-3   -1.733826846836532E-1   -4.368540039957967E-3   -1.681917286849652E-1   -5.062330806993673E1     7.887481289139137E1
 3.610000000000000E4    -5.051794601739477E1     7.761859904437566E1    -5.513272295978195E-3   -1.795718288469068E-1   -4.666517224539093E-3   -1.741466921220147E-1   -5.031385439191841E1     7.913361282932127E1
 3.700000000000000E4    -5.020766850508124E1     7.740316170111662E1    -5.433816254989815E-3   -1.858180448068685E-1   -4.726561488128864E-3   -1.800788052477548E-1   -5.003216316032780E1     7.933413151708729E1
 3.790000000000000E4    -4.992213027485499E1     7.805646946497524E1    -5.645373621554952E-3   -1.922513774582682E-1   -4.429594144867395E-3   -1.864170543091327E-1   -4.976166452102288E1     7.913470512012532E1
 3.880000000000000E4    -4.963723542964806E1     7.815203006408026E1    -5.827610321458034E-3   -1.978010783338690E-1   -4.835437940484117E-3   -1.920603675629596E-1   -4.948266499930056E1     7.945380740527527E1
 3.970000000000000E4    -4.937897706346450E1     7.845995113626611E1    -5.993518123120921E-3   -2.038305497725247E-1   -4.903166121370873E-3   -1.993957771943457E-1   -4.924136155031920E1     7.948779162446056E1
 4.060000000000000E4    -4.912377897300543E1     7.858031490008582E1    -6.034890659117081E-3   -2.096171622024426E-1   -4.955823029884854E-3   -2.046492990790491E-1   -4.898311036857710E1     7.973826903639912E1
 4.150000000000000E4    -4.891595161471493E1     7.854355885368818E1    -6.088305584900879E-3   -2.162881469107276E-1   -4.865342764672737E-3   -2.107972176739870E-1   -4.876761050558460E1     7.961242321721333E1
 4.240000000000000E4    -4.862052182303056E1     7.870680911633268E1    -6.221440043673432E-3   -2.212206480081955E-1   -5.208962632701546E-3   -2.168962888784413E-1   -4.852558103686210E1     7.964288262721804E1
 4.330000000000000E4    -4.841925571503351E1     7.912217311420171E1    -6.526013252960383E-3   -2.275615375624812E-1   -5.654060944685404E-3   -2.219731089641882E-1   -4.826197062384023E1     8.003316314879524E1
 4.420000000000000E4    -4.819158180311383E1     7.935019139370151E1    -6.695803963458194E-3   -2.325889762288231E-1   -5.545603994010577E-3   -2.287284062985183E-1   -4.803925645792305E1     7.985242083479245E1
 4.510000000000000E4    -4.796586564430687E1     7.955676132927952E1    -6.769424317431197E-3   -2.389366412526580E-1   -5.742282771616525E-3   -2.346139462726317E-1   -4.781773568318191E1     8.007734134982053E1
 4.600000000000000E4    -4.776447482771075E1     7.950438471665787E1    -6.811424290108409E-3   -2.445978344422410E-1   -5.898783661874284E-3   -2.404323837938237E-1   -4.760768686161013E1     8.001791585143418E1
 4.690000000000000E4    -4.755796142407270E1     7.957571624102786E1    -6.826884152444894E-3   -2.500193379284206E-1   -5.619556607817214E-3   -2.460739167140935E-1   -4.740249828883773E1     7.986669630067827E1
 4.780000000000000E4    -4.734637681755942E1     7.990182856765465E1    -7.013516489239208E-3   -2.552204777891565E-1   -5.859166279911503E-3   -2.515060820680230E-1   -4.718715940866360E1     7.991273680883755E1
 4.870000000000000E4    -4.716894878640105E1     8.003113075872342E1    -7.142667709784521E-3   -2.613524751703472E-1   -5.970977622854513E-3   -2.574055641119721E-1   -4.699921255242152E1     7.995563831861706E1
 4.960000000000000E4    -4.696219184460138E1     8.022935578641480E1    -7.724821381425955E-3   -2.663993099176948E-1   -5.823462476459923E-3   -2.620554286160371E-1   -4.677735178197166E1     7.965027636968735E1
 5.050000000000000E4    -4.680397928543827E1     8.002570939217685E1    -7.266237484883849E-3   -2.726199556990465E-1   -6.222957428700641E-3   -2.686112694341506E-1   -4.661764223149340E1     7.993992595199296E1
 5.140000000000000E4    -4.660834200983825E1     7.992689951038409E1    -7.300637121392769E-3   -2.778767333117196E-1   -6.331118324079990E-3   -2.736587705330386E-1   -4.642187573306038E1     8.005684941015564E1
 5.230000000000000E4    -4.643489554495912E1     8.004453466708432E1    -7.527372293972453E-3   -2.834465709391528E-1   -6.414165512326772E-3   -2.796690600197013E-1   -4.625500615285767E1     8.009091085336887E1
 5.320000000000000E4    -4.626526748404363E1     7.986391401702413E1    -7.451691256245197E-3   -2.885294977378304E-1   -6.350191093842602E-3   -2.842009144641195E-1   -4.606420263854605E1     8.007598934547111E1
 5.410000000000000E4    -4.609043078134139E1     8.011266218619556E1    -7.700996309732536E-3   -2.935918123504201E-1   -6.684515441709369E-3   -2.904361479896916E-1   -4.591089065355695E1     8.053976254892923E1
 5.500000000000000E4    -4.592410618365957E1     8.017962800910321E1    -7.849268077857276E-3   -2.991150169282130E-1   -6.710542038964097E-3   -2.956627710290136E-1   -4.576153547102312E1     8.072283271694072E1
 5.590000000000000E4    -4.574760362174541E1     8.018680397876818E1    -7.959467728733899E-3   -3.047652853814766E-1   -6.886277826509215E-3   -3.015074831083225E-1   -4.560402361213634E1     8.063926168706226E1
 5.680000000000000E4    -4.560909810709775E1     8.035061316141272E1    -8.174939200338793E-3   -3.105947095568884E-1   -7.040440339190305E-3   -3.069629363431923E-1   -4.545889763695070E1     8.084805373727504E1
 5.770000000000000E4    -4.544598274742282E1     8.052270315573473E1    -8.253443328893498E-3   -3.156462298530006E-1   -7.029586782053069E-3   -3.127071844309207E-1   -4.533221482847025E1     8.079334700389693E1
 5.860000000000000E4    -4.529838318113921E1     8.051153729913528E1    -8.381637695409326E-3   -3.217211214030503E-1   -7.220102148093883E-3   -3.185279619705001E-1   -4.518648506587540E1     8.086225467612685E1
 5.950000000000000E4    -4.513928639878153E1     8.048442662495627E1    -8.392005020787704E-3   -3.268209247059359E-1   -7.466379858858404E-3   -3.235751271315825E-1   -4.503890878968922E1     8.087604388519074E1
 6.040000000000000E4    -4.499757182190341E1     8.035306148122841E1    -8.407486613060421E-3   -3.318598531936539E-1   -7.611797168499915E-3   -3.298939430638083E-1   -4.489989063477950E1     8.085958013612682E1
 6.130000000000000E4    -4.485742505414432E1     8.072627082227891E1    -8.590652926873310E-3   -3.367736277300248E-1   -7.760680863866717E-3   -3.349363639205592E-1   -4.477299005064264E1     8.102730995147397E1
 6.220000000000000E4    -4.471904756321553E1     8.071857791385530E1    -8.671287268700549E-3   -3.422533805294649E-1   -7.556146806458138E-3   -3.394525500360440E-1   -4.463045032171303E1     8.087930383407766E1
 6.310000000000000E4    -4.456844705038306E1     8.075286159785662E1    -8.862208172889083E-3   -3.473516440710885E-1   -7.931646557127033E-3   -3.446316006695183E-1   -4.450059541535570E1     8.103788145792865E1
 6.400000000000000E4    -4.444673429761872E1     8.088894114174680E1    -8.958462280995805E-3   -3.535877863318197E-1   -8.201601362976324E-3   -3.508288483021715E-1   -4.436705027614572E1     8.118952406531945E1
 6.490000000000000E4    -4.432219004490744E1     8.093832716879125E1    -9.121135093777120E-3   -3.590935392759257E-1   -7.749885547338109E-3   -3.559956323013992E-1   -4.424360764465595E1     8.081951606419517E1
 6.580000000000000E4    -4.418311386090102E1     8.110724613217798E1    -9.154083605409301E-3   -3.641955607396781E-1   -7.818838830791338E-3   -3.607754300743710E-1   -4.411442808309153E1     8.089185202630459E1
 6.670000000000000E4    -4.406169557078979E1     8.094218946953018E1    -9.082887135424263E-3   -3.695051754042052E-1   -7.906053809580390E-3   -3.663259613078007E-1   -4.399371691732468E1     8.090203069902873E1
 6.760000000000000E4    -4.393492445152107E1     8.107837908422566E1    -9.232328990301332E-3   -3.743381641751324E-1   -7.997234630457284E-3   -3.709872740705473E-1   -4.386673617297131E1     8.090605936464202E1
 6.850000000000000E4    -4.381161076976190E1     8.124319908658120E1    -9.440725778732402E-3   -3.799956302176180E-1   -8.113510126341286E-3   -3.768626124318052E-1   -4.376226425453936E1     8.094698733965700E1
 6.940000000000000E4    -4.369683584701149E1     8.117750920983922E1    -9.372877183783325E-3   -3.852667076871231E-1   -8.166787954880362E-3   -3.819549684589135E-1   -4.363578716268812E1     8.105876319449681E1
 7.030000000000000E4    -4.357252454813190E1     8.112606628006502E1    -9.389411900640013E-3   -3.899838434477760E-1   -8.121660817486848E-3   -3.870556929166090E-1   -4.352762154028639E1     8.096583990009364E1
 7.120000000000000E4    -4.345625643623713E1     8.115147683769638E1    -9.540784068635373E-3   -3.953204282453092E-1   -8.511941416261833E-3   -3.917589505311082E-1   -4.341472949047599E1     8.117610204981285E1
 7.210000000000000E4    -4.335068239068342E1     8.136997374828660E1    -9.740091684168232E-3   -4.008329369344610E-1   -8.633202553957690E-3   -3.970327986010362E-1   -4.331076603762256E1     8.135232737975963E1
 7.300000000000000E4    -4.322447154485819E1     8.139346139531021E1    -9.769389864932254E-3   -4.052575391010611E-1   -8.566959097425667E-3   -4.021205813489522E-1   -4.319494800888832E1     8.118174652054012E1
 7.390000000000000E4    -4.311494661546227E1     8.125362745399654E1    -9.748019363836671E-3   -4.109304528120507E-1   -8.761111832550520E-3   -4.075881732523917E-1   -4.308095627676197E1     8.132533683212206E1
 7.480000000000000E4    -4.300818087955962E1     8.125337862909602E1    -9.859167097422256E-3   -4.156760771223688E-1   -8.790848942288385E-3   -4.125170513069324E-1   -4.297016578327886E1     8.134982219111599E1
 7.570000000000000E4    -4.291337258685070E1     8.141193691836517E1    -1.007143220269841E-2   -4.215030426875503E-1   -9.014716205114242E-3   -4.178362404692822E-1   -4.286492372140441E1     8.146936761933063E1
 7.660000000000000E4    -4.278694483256564E1     8.148420701076684E1    -1.015506815466446E-2   -4.263738183177389E-1   -9.116806273875287E-3   -4.229671474336105E-1   -4.275853329788823E1     8.149005651304164E1
 7.750000000000000E4    -4.269016605902849E1     8.137282577759244E1    -1.022671714126491E-2   -4.309047442672553E-1   -8.940017867761510E-3   -4.281844705270935E-1   -4.265976859672291E1     8.141103322310140E1
 7.840000000000000E4    -4.258408148603767E1     8.150640930647899E1    -1.032591833295775E-2   -4.360838983273798E-1   -9.312254317047483E-3   -4.330770577443022E-1   -4.254833200711813E1     8.142957555762329E1
 7.930000000000000E4    -4.247841812633620E1     8.147687783127520E1    -1.035772226030638E-2   -4.411647674108107E-1   -9.358169145345104E-3   -4.379759692228387E-1   -4.244794058459605E1     8.142363217162521E1
 8.020000000000000E4    -4.238066170886933E1     8.149774908233741E1    -1.043517580729787E-2   -4.465017542631305E-1   -9.432916104160489E-3   -4.432639408063641E-1   -4.235501970749048E1     8.147662084395951E1
 8.110000000000000E4    -4.228219239091754E1     8.171239919671203E1    -1.070557624156786E-2   -4.510924251139375E-1   -9.507909800218347E-3   -4.488447992542202E-1   -4.225503507818610E1     8.149277162785427E1
 8.200000000000000E4    -4.219109779425463E1     8.158792545423144E1    -1.072040746385225E-2   -4.566081299281880E-1   -9.534460588770385E-3   -4.532915185920785E-1   -4.215535097683680E1     8.170091067775441E1
 8.290000000000000E4    -4.209295680099216E1     8.175616599537975E1    -1.084097347678421E-2   -4.616588531966330E-1   -9.704816308205130E-3   -4.590325284899893E-1   -4.206494332694375E1     8.170356739354209E1
 8.380000000000000E4    -4.199329404940030E1     8.179462473545853E1    -1.076748181049021E-2   -4.656205773793114E-1   -9.752366975615889E-3   -4.638818809287799E-1   -4.197713295498879E1     8.178698562789340E1
 8.470000000000000E4    -4.189585932111869E1     8.173364861197587E1    -1.092603051481632E-2   -4.706155031635614E-1   -9.457816278641281E-3   -4.689792439546642E-1   -4.188686493196293E1     8.160301408168766E1
 8.560000000000000E4    -4.180852058984012E1     8.174096516745725E1    -1.102040130403021E-2   -4.765960075697228E-1   -9.543913956792743E-3   -4.742217260585407E-1   -4.178311176227895E1     8.152684247891834E1
 8.650000000000000E4    -4.171558213416244E1     8.178016110462676E1    -1.111028996632145E-2   -4.811374344450530E-1   -9.755070986628702E-3   -4.787758008930400E-1   -4.169185036573670E1     8.160658872198726E1
 8.740000000000000E4    -4.162338128253482E1     8.182925063830466E1    -1.103664625527168E-2   -4.856373737142164E-1   -9.515191121005139E-3   -4.837421874901517E-1   -4.161122498021510E1     8.157412403915349E1
 8.830000000000000E4    -4.153882013994726E1     8.174127276527391E1    -1.122945870908873E-2   -4.910961591254523E-1   -9.598874069371096E-3   -4.887057101400397E-1   -4.151627692926078E1     8.164370641476141E1
 8.920000000000000E4    -4.145246071247973E1     8.174238795843081E1    -1.118155108246923E-2   -4.964235855241452E-1   -9.589059282426430E-3   -4.934700618373613E-1   -4.142536417160380E1     8.156500714415964E1
 9.010000000000000E4    -4.136284282954865E1     8.189463556694770E1    -1.134288626168703E-2   -5.004403691050017E-1   -9.844656470321582E-3   -4.983127580183667E-1   -4.133600837549555E1     8.172062765114131E1
 9.100000000000000E4    -4.127487781804695E1     8.195169380981274E1    -1.141736487356331E-2   -5.056109931082233E-1   -9.893766398524481E-3   -5.040364283373325E-1   -4.125714446435868E1     8.173090770253081E1
 9.190000000000000E4    -4.118507906039312E1     8.181888561894735E1    -1.136478765344846E-2   -5.103853015117272E-1   -9.997121041546370E-3   -5.089993200479368E-1   -4.117014489582110E1     8.182570352539040E1
