#  HZ   S   DB   R     50.00 
! Rohde & Schwarz Vector Network Analyzer 
! Rohde-Schwarz,ZNL6-2Port,1323001206101709,1.40.1.1-21.04.2.40
! Created: UTC 3/14/2023, 12:17:17 PM
! freq[Hz]                db:S11                  ang:S11                 db:S21                  ang:S21                 db:S12                  ang:S12                 db:S22                  ang:S22
 1.000000000000000E4    -4.843023165583230E1     2.510605687176972E1    -9.506359966688720E1     6.490353747827453E1    -9.724531222363247E1     6.481698991044372E1    -5.011806674738057E1     1.526017310031701
 1.090000000000000E4    -4.835574846378827E1     2.423949667862434E1    -1.002190920471795E2     8.439901282784371E1    -9.828823108178334E1     5.427212460914021E1    -4.997252439188084E1     1.298308190675086
 1.180000000000000E4    -4.821784139964018E1     2.516457873600045E1    -9.462117206737537E1     6.647376370654152E1    -9.467916134746174E1     5.908216837923645E1    -4.997289320754453E1     1.199318729166412
 1.270000000000000E4    -4.809860273231760E1     2.600144510317818E1    -9.439492315408188E1     5.960400118140200E1    -9.464733945574609E1     7.326402436805115E1    -4.996904130461463E1     1.527535842589124
 1.360000000000000E4    -4.799573368888801E1     2.728909305423666E1    -9.301469440812130E1     6.421137584778437E1    -9.413699690355853E1     6.739074991490411E1    -4.999356674453020E1     1.624847261734025
 1.450000000000000E4    -4.790667668043933E1     2.810875254669431E1    -9.409914954906952E1     8.025254121907091E1    -9.383321228119682E1     6.537152682685695E1    -5.001504948559823E1     1.761917115819029
 1.540000000000000E4    -4.779396668508770E1     2.910259105628560E1    -9.176596983950768E1     7.692907187962403E1    -9.173733056350440E1     6.039038916353925E1    -5.008715368986366E1     1.989642957595151
 1.630000000000000E4    -4.771692654470661E1     3.044477602788619E1    -9.215382574206717E1     6.799284567819242E1    -9.188451659774343E1     7.919758277082381E1    -5.007482977587709E1     2.237020162034491
 1.720000000000000E4    -4.757793779951488E1     3.125890453392623E1    -9.370226748604672E1     7.384571520856042E1    -9.282225231865178E1     7.328081489835324E1    -5.010539411657511E1     2.468152289246545
 1.810000000000000E4    -4.746991583849568E1     3.240601599457019E1    -9.118807119643481E1     6.344899843196509E1    -9.176018234605439E1     8.401297094676821E1    -5.009044650558810E1     2.782268960134090
 1.900000000000000E4    -4.732603625573635E1     3.290607122525586E1    -9.325019177722095E1     6.261285787012812E1    -9.027716931546300E1     7.551181155457053E1    -5.010795693069979E1     3.121991432180244
 1.990000000000000E4    -4.722841840430569E1     3.402456804563892E1    -9.047954239330946E1     8.007020043978814E1    -8.922030634753386E1     6.975185334994019E1    -5.018697925391602E1     3.403038624261728
 2.080000000000000E4    -4.710801124620552E1     3.485867227965943E1    -9.054760838605048E1     7.225951629134622E1    -8.943694434050462E1     7.544303019852619E1    -5.010659612597480E1     3.979728487435911
 2.170000000000000E4    -4.697585373578561E1     3.543880789611352E1    -9.046254121014435E1     8.133624448052525E1    -8.941649587412947E1     7.510261767288060E1    -5.010429593723276E1     4.816348647290474
 2.260000000000000E4    -4.689015856043323E1     3.638711126038270E1    -8.902875398225844E1     7.828895123875921E1    -8.939469015898267E1     8.350401589158784E1    -5.011849147061335E1     5.216431795990633
 2.350000000000000E4    -4.678145280926565E1     3.726613023806577E1    -8.936160266493116E1     7.602348368641989E1    -8.879972418137029E1     7.784938915145345E1    -5.006214647472120E1     5.718180785510987
 2.440000000000000E4    -4.662762902165436E1     3.768255242602154E1    -8.819765646080538E1     7.350535695595549E1    -8.964819755895721E1     7.813284510674104E1    -4.999108659689593E1     6.041974160688310
 2.530000000000000E4    -4.653790235976606E1     3.831437496217096E1    -8.838239107917227E1     8.222461434007798E1    -8.812810541072309E1     8.463257948455031E1    -5.004195539315987E1     6.796391728734386
 2.620000000000000E4    -4.640127190956274E1     3.903305207934140E1    -8.856860712493858E1     7.483039121242952E1    -8.721361811036699E1     8.217443992178801E1    -5.007771164061467E1     7.369272280149911
 2.710000000000000E4    -4.626178169342414E1     3.980588224938726E1    -8.851466369018952E1     7.653949115689522E1    -8.745200603006160E1     8.611459195850307E1    -4.998596989085062E1     7.456626364345433
 2.800000000000000E4    -4.616301763458428E1     4.045334046470301E1    -8.692674823245413E1     8.201021431452841E1    -8.657522169452443E1     7.415981391528089E1    -4.995071272258109E1     8.184957566941767
 2.890000000000000E4    -4.603617810229917E1     4.097608111265125E1    -8.716958019666885E1     7.430734322588397E1    -8.707624382770818E1     8.005638243977164E1    -4.990816399190862E1     8.840314943840019
 2.980000000000000E4    -4.593186309988403E1     4.154091237414215E1    -8.758921358206143E1     8.210429508645896E1    -8.733752049188949E1     7.807707341204657E1    -4.993890749234162E1     9.071269505044308
 3.070000000000000E4    -4.581222502853056E1     4.218838172304131E1    -8.629556125026780E1     7.857525967416450E1    -8.629017107293599E1     7.900188527155279E1    -4.991146378098436E1     9.761137394957990
 3.160000000000000E4    -4.573381994363334E1     4.280537822417799E1    -8.632803871876865E1     7.934672688882131E1    -8.559625240893934E1     7.907593339001605E1    -4.995695887188926E1     1.030071990238605E1
 3.250000000000000E4    -4.560621851201043E1     4.327498689574681E1    -8.609098775088745E1     7.733822078809547E1    -8.519307270308317E1     8.505710194224515E1    -4.993303503726572E1     1.085468365779557E1
 3.340000000000000E4    -4.550374806355340E1     4.389419257170479E1    -8.591216922043418E1     8.604706944682945E1    -8.543034858891218E1     7.961671875203105E1    -4.992939566623348E1     1.148920832617401E1
 3.430000000000000E4    -4.538535164257627E1     4.442194922185369E1    -8.563397998649856E1     8.694242778590265E1    -8.536816741578687E1     8.322036812177355E1    -4.988989543536130E1     1.201186950672006E1
 3.520000000000000E4    -4.526052844138081E1     4.470962897538718E1    -8.511909622583262E1     7.830487437809199E1    -8.533515605642785E1     8.189622498776899E1    -4.990133290751605E1     1.243836133833616E1
 3.610000000000000E4    -4.514558470053953E1     4.538018450402548E1    -8.509782971341252E1     8.009457846323630E1    -8.542265280570378E1     7.983291405937099E1    -4.985675444530712E1     1.292098716011354E1
 3.700000000000000E4    -4.505451175143107E1     4.589979277546866E1    -8.404501425307339E1     7.932626218361632E1    -8.478668478958282E1     8.022806386508282E1    -4.985719576067603E1     1.339529972986947E1
 3.790000000000000E4    -4.494693509263175E1     4.635440999599912E1    -8.441597429154415E1     8.496476718114629E1    -8.468643994305268E1     8.421638808687835E1    -4.987136209988243E1     1.410573106994614E1
 3.880000000000000E4    -4.484156428750990E1     4.691278245084009E1    -8.381905831526211E1     8.593246371505921E1    -8.425985902935246E1     8.299181270236345E1    -4.985269198208143E1     1.458751177712735E1
 3.970000000000000E4    -4.476522203530229E1     4.746984444223731E1    -8.436018586867846E1     8.232397263260508E1    -8.436927566882217E1     8.137225355351190E1    -4.986199770271193E1     1.522763380543638E1
 4.060000000000000E4    -4.464012300564533E1     4.782679456315498E1    -8.337014664233726E1     8.234508366615933E1    -8.389322995951227E1     8.309178142442046E1    -4.978539422133339E1     1.556817199079566E1
 4.150000000000000E4    -4.453111131183419E1     4.829596414705763E1    -8.379238585846709E1     8.395568516911541E1    -8.383420711025980E1     8.181425701766665E1    -4.976664911737014E1     1.597123486077168E1
 4.240000000000000E4    -4.442926299044164E1     4.867088857749874E1    -8.328570075409182E1     8.191966571214654E1    -8.356272461637218E1     8.382974339391991E1    -4.975888256152604E1     1.647840395905514E1
 4.330000000000000E4    -4.434952251975018E1     4.925357637444863E1    -8.344640441106500E1     8.206895498916731E1    -8.326815107617266E1     8.221446663611127E1    -4.967914374018295E1     1.682970178473205E1
 4.420000000000000E4    -4.422378660745494E1     4.952211974412112E1    -8.342824888916351E1     8.718803080072441E1    -8.310508130153170E1     8.278837305231480E1    -4.962392703843540E1     1.703732795589989E1
 4.510000000000000E4    -4.412780739504587E1     4.990600692707437E1    -8.385837914709225E1     8.248190382597443E1    -8.324962008199238E1     8.337624710016905E1    -4.963620323289405E1     1.774701396220328E1
 4.600000000000000E4    -4.402513265207514E1     5.029446346600023E1    -8.288484809688883E1     8.041260482566648E1    -8.286910660403828E1     8.246918681532689E1    -4.955688874826733E1     1.805244251369290E1
 4.690000000000000E4    -4.391104957625430E1     5.050914399299997E1    -8.315321797308997E1     8.171595066332557E1    -8.247999081649266E1     8.645050803041424E1    -4.958780933006621E1     1.868732760493057E1
 4.780000000000000E4    -4.383325643666156E1     5.100449133692978E1    -8.275055487650449E1     8.014688663709724E1    -8.234206696102970E1     8.399386627334297E1    -4.955269761565611E1     1.918495461672089E1
 4.870000000000000E4    -4.375573520318341E1     5.158123480164245E1    -8.200677022947045E1     8.479753035466055E1    -8.234049450674109E1     8.485540612623917E1    -4.958477248231857E1     1.981218229839974E1
 4.960000000000000E4    -4.365912181934924E1     5.201528892991855E1    -8.183831299540857E1     8.517392908253608E1    -8.260472813956184E1     8.312656389569402E1    -4.956571907691330E1     2.019730144311427E1
 5.050000000000000E4    -4.356568097505472E1     5.234483947091596E1    -8.194228060110264E1     8.300872863953501E1    -8.206253661532136E1     8.609425640993125E1    -4.948958955538395E1     2.039406729206623E1
 5.140000000000000E4    -4.346447512958497E1     5.249075535473239E1    -8.197075742173266E1     8.528136087130956E1    -8.204076896631966E1     8.492435957709502E1    -4.949039138622111E1     2.100985906099883E1
 5.230000000000000E4    -4.337287189048582E1     5.300479251892113E1    -8.187010882034042E1     8.694300734538517E1    -8.160116434575869E1     8.455305467804111E1    -4.943045378863264E1     2.123925427907514E1
 5.320000000000000E4    -4.327957312605224E1     5.327901866949753E1    -8.136867327919306E1     8.574515135590532E1    -8.147094846262972E1     8.417825547758410E1    -4.943084246680058E1     2.179802450806482E1
 5.410000000000000E4    -4.318265626977479E1     5.346850522093583E1    -8.117612400561580E1     8.271911686274471E1    -8.169287615102812E1     8.182650259974550E1    -4.935192666198031E1     2.215077115937904E1
 5.500000000000000E4    -4.308677408332642E1     5.381503635379499E1    -8.114821894822269E1     8.766031427676974E1    -8.104513494172716E1     8.571032359840900E1    -4.932479939836823E1     2.247889167318221E1
 5.590000000000000E4    -4.300033038988269E1     5.412748827168897E1    -8.130085517733720E1     8.330603194078704E1    -8.137888043589832E1     8.424108728337470E1    -4.930393286446753E1     2.285395636769457E1
 5.680000000000000E4    -4.290925992700419E1     5.441945077361029E1    -8.094782471306230E1     8.472583364688751E1    -8.094737347473935E1     8.626389301253751E1    -4.932672565386813E1     2.375831386670864E1
 5.770000000000000E4    -4.283145551249206E1     5.467875896715847E1    -8.091794510533724E1     8.750867237737688E1    -8.125587787933432E1     8.355546168783498E1    -4.928538604158465E1     2.404427156534262E1
 5.860000000000000E4    -4.273118241128991E1     5.501783380130376E1    -8.049734219576621E1     8.563060208661635E1    -8.050141309393325E1     8.293189931271995E1    -4.924561246290064E1     2.430989244792087E1
 5.950000000000000E4    -4.264949675231234E1     5.524388917071793E1    -8.042375727965072E1     8.653912195820048E1    -8.044881723206097E1     8.385541315454897E1    -4.924839154307826E1     2.489799789992864E1
 6.040000000000000E4    -4.255507655800133E1     5.556655388906120E1    -8.037715609883229E1     8.602695021325587E1    -8.028719626144181E1     8.252808388624106E1    -4.918934053040044E1     2.500614320821631E1
 6.130000000000000E4    -4.248512553645261E1     5.591389867523949E1    -8.064084480658281E1     8.301139196199101E1    -8.080047293964319E1     8.352853324553564E1    -4.918148203164044E1     2.574940918091168E1
 6.220000000000000E4    -4.239496036188338E1     5.620231528680211E1    -8.013007635359544E1     8.507965104110663E1    -8.022190642985505E1     8.370745992226200E1    -4.913456980588063E1     2.599280470173809E1
 6.310000000000000E4    -4.230408222056073E1     5.643836175888378E1    -7.995273532519109E1     8.321282846973435E1    -8.049201891539812E1     8.466762452270950E1    -4.912935075207418E1     2.629220228667956E1
 6.400000000000000E4    -4.222378327490570E1     5.666302538437118E1    -7.967059969964113E1     8.442789580008409E1    -7.985379757983678E1     8.467411371425831E1    -4.903255247792857E1     2.650289678750653E1
 6.490000000000000E4    -4.215066687783328E1     5.701724426795998E1    -7.979522573385148E1     8.388975875211088E1    -8.006154681091159E1     8.679009344594546E1    -4.903721857241734E1     2.703071270493967E1
 6.580000000000000E4    -4.205491569241791E1     5.720975439694256E1    -7.941444669880175E1     8.647968800908160E1    -7.924048663481631E1     8.609133774022123E1    -4.900777128762834E1     2.742854498565255E1
 6.670000000000000E4    -4.197196666914049E1     5.742302377412378E1    -7.959282886730409E1     8.592101755475987E1    -7.949268389164412E1     8.554069885121532E1    -4.893812322836023E1     2.758051955998981E1
 6.760000000000000E4    -4.189404301790832E1     5.776647008866436E1    -7.941045491541863E1     8.671192589369873E1    -7.943650045804932E1     8.632127950094805E1    -4.890302111864965E1     2.800804162343782E1
 6.850000000000000E4    -4.182275345120459E1     5.800345588592717E1    -7.924885561295869E1     8.400963226196961E1    -7.949711207661386E1     8.528854711158466E1    -4.887622475174889E1     2.842798823076299E1
 6.940000000000000E4    -4.174790588456102E1     5.831963421008723E1    -7.945478111284231E1     8.376694445207005E1    -7.939884871985409E1     8.512980983434429E1    -4.885872589844185E1     2.878900308344861E1
 7.030000000000000E4    -4.166721561429588E1     5.852998593550797E1    -7.905544958352847E1     8.642964448011648E1    -7.895509683719797E1     8.627312863633738E1    -4.882473512836401E1     2.920913349935138E1
 7.120000000000000E4    -4.158800373747725E1     5.885031987181083E1    -7.908780968178034E1     8.707230626782076E1    -7.907792845473850E1     8.416152008919802E1    -4.883122730366705E1     2.967173151012891E1
 7.210000000000000E4    -4.152153154815397E1     5.912155047848798E1    -7.902429694990924E1     8.664305599553369E1    -7.885460952080297E1     8.621659970267557E1    -4.878879335621957E1     3.002055407436821E1
 7.300000000000000E4    -4.144040719310578E1     5.925870781001012E1    -7.877946315669989E1     8.621089294226239E1    -7.887384983187471E1     8.635838423283012E1    -4.875719123491094E1     3.021162157843055E1
 7.390000000000000E4    -4.136804731930469E1     5.949897963414681E1    -7.848499239700068E1     8.703762055874954E1    -7.839654033894153E1     8.548183179304405E1    -4.865752560670433E1     3.026963118671068E1
 7.480000000000000E4    -4.128667492838522E1     5.972767301345085E1    -7.852028446148464E1     8.465114471730648E1    -7.847379206440169E1     8.456800894938375E1    -4.864816515837152E1     3.079916736226050E1
 7.570000000000000E4    -4.120625946873275E1     5.990506540327112E1    -7.854765553080324E1     8.639727005736100E1    -7.834664698810943E1     8.625905565476737E1    -4.863367226720869E1     3.125619971260937E1
 7.660000000000000E4    -4.112988074278425E1     6.017342060628049E1    -7.840303611801097E1     8.684084964182594E1    -7.837856035247977E1     8.522498520868707E1    -4.858170735980818E1     3.141750653030944E1
 7.750000000000000E4    -4.107291859619829E1     6.043744807465734E1    -7.820766101986572E1     8.507249410894985E1    -7.848893411301968E1     8.512135465629773E1    -4.854813128750035E1     3.179271139082370E1
 7.840000000000000E4    -4.099169439558604E1     6.050830132665176E1    -7.826347695575106E1     8.579217255376754E1    -7.807946179021407E1     8.350632728707316E1    -4.852973288425440E1     3.224349131703863E1
 7.930000000000000E4    -4.091769832585661E1     6.067602819428689E1    -7.798839845311599E1     8.482662650778266E1    -7.820888519635309E1     8.536500434288658E1    -4.849712566175218E1     3.246064536153909E1
 8.020000000000000E4    -4.084347646446527E1     6.093018706180754E1    -7.785724488520736E1     8.479396708895915E1    -7.797967759949177E1     8.522078926370708E1    -4.849865845348396E1     3.292021639263005E1
 8.110000000000000E4    -4.077808763148654E1     6.112364471473209E1    -7.785575145211634E1     8.443816980034455E1    -7.800565526563445E1     8.475395717896643E1    -4.841403888978168E1     3.306443534034321E1
 8.200000000000000E4    -4.070686321104204E1     6.124449296986792E1    -7.771390228377136E1     8.526014687839638E1    -7.804587538617223E1     8.563844729255118E1    -4.838552889385446E1     3.339324756889737E1
 8.290000000000000E4    -4.064008689389512E1     6.141574243067834E1    -7.775049184935075E1     8.404245571421308E1    -7.781240502644789E1     8.551550071893007E1    -4.836116902385724E1     3.377705997427229E1
 8.380000000000000E4    -4.057360240716912E1     6.160309156432869E1    -7.759838285245418E1     8.595731413195450E1    -7.766407968272344E1     8.582694072841080E1    -4.828859407113909E1     3.396036312680341E1
 8.470000000000000E4    -4.050659078388927E1     6.193438908485930E1    -7.743139904602779E1     8.689477772396829E1    -7.729928427064927E1     8.351830577576487E1    -4.826016752091761E1     3.416648280080236E1
 8.560000000000000E4    -4.043222151899673E1     6.205939494351261E1    -7.743028863066786E1     8.520628270716919E1    -7.758873152142311E1     8.624257890340249E1    -4.821927253972139E1     3.437922903371230E1
 8.650000000000000E4    -4.036745262358050E1     6.229249423279526E1    -7.731950596315117E1     8.695097190485208E1    -7.718158261893946E1     8.658960243295036E1    -4.819973336076993E1     3.464158473225860E1
 8.740000000000000E4    -4.029493052358912E1     6.242210782869259E1    -7.701101129894417E1     8.585599650076139E1    -7.756839422545897E1     8.571762825067790E1    -4.817603216780331E1     3.514415125796970E1
 8.830000000000000E4    -4.022989652753596E1     6.258548037639211E1    -7.712126223417356E1     8.565143886138216E1    -7.725979296470103E1     8.604240290688580E1    -4.815679590017731E1     3.544286849092723E1
 8.920000000000000E4    -4.015750449576372E1     6.271793256849033E1    -7.704632400221197E1     8.595846970430735E1    -7.702103748701127E1     8.497534822130773E1    -4.814434838067095E1     3.598132755129685E1
 9.010000000000000E4    -4.008624844871324E1     6.285883498388203E1    -7.687004773198849E1     8.646749899129003E1    -7.702138065013339E1     8.566043595625392E1    -4.808531473409899E1     3.603856258380438E1
 9.100000000000000E4    -4.001591824019432E1     6.295811691813279E1    -7.687542867460793E1     8.533294272361628E1    -7.681359266759037E1     8.496342220359452E1    -4.804977405996411E1     3.638616058225665E1
 9.190000000000000E4    -3.995007345783648E1     6.312329628977893E1    -7.677724080573823E1     8.547096496002865E1    -7.693983939368012E1     8.642296902851471E1    -4.803441734609276E1     3.665187383466376E1
