# Hz S RI R 50
10.0 221.05672905920247 -1.254838942923367
10.655379505623058 221.05089520088546 -1.3367201398935353
11.35371124088519 221.04427844517093 -1.4238929696973752
12.097810206889013 221.0367747711402 -1.5166887467818952
12.890675894140264 221.02826663587683 -1.615457316987901
13.735504373605137 221.0186213023166 -1.7205676290868768
14.635701180190798 221.00768898496844 -1.8324082178774634
15.594895040582823 220.99530080094053 -1.951387569877448
16.61695250077689 220.98126651518925 -2.077934337038368
17.70599351226899 220.9653720713717 -2.212497357551078
18.866408039732583 220.94737690343382 -2.355545435702799
20.102873757128854 220.9270110284599 -2.5075668249400467
21.42037490358384 220.90397192879186 -2.669068349912052
22.824222375040975 220.87792124149212 -2.840574094545103
24.320075132679474 220.8484812864619 -3.0226235745040677
25.913963014396586 220.81523148155804 -3.2157693043009563
27.61231104130753 220.7777047145409 -3.420573662633255
29.421965317243757 220.7353837682626 -3.6376049554185497
31.350220625651154 220.68769792770343 -3.867432575971649
33.404849835132445 220.63401993557704 -4.110621167844152
35.594135232168604 220.57366350715972 -4.36772371053062
37.926901907322495 220.5058816640169 -4.639273474594388
40.412553329506004 220.42986619872687 -4.925774834327273
43.06110925171171 220.3447486355675 -5.227692986720826
45.883246101008446 220.249603100741 -5.545442709219157
48.890340015614456 220.14345155325083 -5.879376398884733
52.094512702532114 220.0252718447391 -6.229771774397552
55.50868030059805 219.89400906157692 -6.59681978949163
59.14660544591749 219.7485905410887 -6.980613497964968
63.02295274956024 219.5879448303488 -7.381138816776322
67.15334791115141 219.41102465514922 -7.798268338342832
71.55444070664578 219.2168336762183 -8.231759520947817
76.24397210419139 219.00445642424995 -8.681258703371482
81.2408457786297 218.7730903312517 -9.146312405240971
86.56520431290944 218.52207823643053 -9.626387243230182
92.23851039358476 218.25093918455931 -10.120899473208864
98.28363332770026 217.95939482020265 -10.62925463051922
104.72494122981487 217.64738829844435 -11.150896979886298
111.5883992507748 217.31509247813 -11.68536753401202
118.90167424419899 216.96290432767654 -12.232368330300416
126.69424629259063 216.59142301988453 -12.791829586961631
134.99752754264296 216.20141013533203 -13.363975444652525
143.8449888287663 215.7937316814552 -13.949383399857162
153.27229459526134 215.36928314144174 -14.549032391395023
163.31744666101667 214.9289003075242 -15.16433489466613
174.0209374062485 214.4732600093466 -15.797149307190365
185.42591299878524 214.00277581282398 -16.449770274780597
197.57834731786994 213.5174941877057 -17.124896226235897
210.5272272765707 213.01699646428756 -17.825575020092725
224.32475028984203 212.50031116978323 -18.555130020313385
239.02653468423918 211.96584019778325 -19.31706991488205
254.691843897454 211.4113009291218 -20.114986060923886
271.383825371428 210.83368511775637 -20.952441069935194
289.16976510202994 210.22923428425304 -21.832851816863382
308.1213588714002 209.59343066728195 -22.759369214008665
328.3150012563047 208.92100254127956 -23.734756115084775
349.8320935775036 208.2059429145503 -24.761263786561685
372.7593720314938 207.44154121601997 -25.840506658508932
397.1892573273302 206.62042846030783 -26.973334663792944
423.22022723792753 205.73463742798572 -28.159702470464094
450.9572135676145 204.77568048068605 -29.398535349037825
480.5120251361242 203.73464861686932 -30.687592305920457
512.0037984840887 202.60233612972996 -32.02332844320448
545.5594781168514 201.369395615688 -33.400760235122185
581.3143282224713 200.02652795513046 -34.81333947310775
619.412477926676 198.56471109650806 -36.252843912320735
660.0075022827095 196.97546987532894 -37.70929498232053
703.2630413380643 195.25118657134863 -39.170915060621944
749.3534597735757 193.38544838924156 -40.62413842712687
798.4645497739086 191.3734235818095 -42.053690722930334
850.7942799627444 189.21225271422384 -43.44275108625149
906.5535934216358 186.90143598388357 -44.77320870055051
965.9672580093833 184.4431921752373 -46.02602093443737
1029.2747724096077 181.84276055941635 -47.18167346091093
1096.7313315588178 179.10861479269317 -48.220733925493285
1168.608855346651 176.25255856321786 -49.124480521079846
1245.197084735032 173.28967710951474 -49.87557630213051
1326.8047497147245 170.23812707789983 -50.4587506853641
1413.76081380736 167.11875915844848 -50.86144296797098
1506.4158001295928 163.9545824714234 -51.074360350705255
1605.1432043647615 160.77009503416096 -51.09190590626199
1710.3410003378397 157.5905186697123 -50.91244041722881
1822.4332442626664 154.4409872494512 -50.53835529808404
1941.8717841282548 151.34574245651862 -49.97595027692596
2069.13808111479 148.3273904123563 -49.23512687717347
2204.7451503814746 145.406265668111 -48.32892455548646
2349.239629049658 142.59993738186694 -47.2729384824648
2503.203979717325 139.92287787745454 -46.08466498738954
2667.2588383874054 137.38629842258868 -44.78282216411581
2842.065516274511 134.9981430467853 -43.38668952119605
3028.3286655749457 132.76322011456296 -41.91550304066424
3226.7991199458083 130.6834440489066 -40.38793215583187
3438.276921143307 128.75815622031547 -38.821654574918334
3663.614544020716 126.98449414862125 -37.23303492899512
3903.7203328860883 125.35778100358047 -35.6369048690486
4159.562163071847 123.87191198021834 -34.04643598732176
4432.171342476086 122.51971954572255 -32.47309290012619
4722.64676880295 121.29330504514546 -30.926651811750954
5032.159359259993 120.18432916869003 -29.415269511074047
5361.956770568817 119.18425799961841 -27.94558859141505
5713.36842831558 118.28456464342534 -26.522866297041432
6087.810885914762 117.4768887914218 -25.151116413773416
6486.793534788508 116.75315809159767 -23.83325574720598
6911.924688779366 116.10567603006714 -22.571248767958085
7364.918067322965 115.52718132517575 -21.36624582435157
7847.5997035146065 115.0108837533608 -20.218711866370953
8361.915304916318 114.55048099094375 -19.12854387326349
8909.938096776106 114.14016057394394 -18.095176143214154
9493.87717927582 113.77459052816259 -17.117673317133963
10116.086432495807 113.44890166089468 -16.194811507893785
10779.074004992735 113.15866397147141 -15.325148231411347
11485.512424239392 112.89985915339872 -14.507082025018422
12238.249369681924 112.66885073800181 -13.738902725635834
13040.319151841288 112.4623530720991 -13.018833394673699
13894.95494373136 112.27740002863513 -12.345064842324376
14805.6018138991 112.11131411406154 -11.715783640106737
15775.930613623614 111.96167645202621 -11.129194431564727
16809.852774253653 111.82629798104246 -10.583537267065417
17911.536074332304 111.70319209569365 -10.077100606061931
19085.42144006686 111.59054887883951 -9.608230552237055
20336.2408468667 111.48671100994288 -9.17533681452543
21669.03639411181 111.3901513875596 -8.776895819555477
23089.180630041927 111.29945246961125 -8.411451337403934
24602.398208697778 111.21328731225225 -8.077612921733031
26214.78896621353 111.13040227702233 -7.774052407118661
27932.85250948253 111.04960137714464 -7.499498651379598
29763.51441631313 110.96973224789403 -7.252730660673135
31714.154152689953 110.8896737531133 -7.032569192539629
33792.63481967431 110.80832527972306 -6.83786690005873
36007.334849856205 110.72459782315588 -6.667497062292095
38367.18178112649 110.63740702683486 -6.520340945909483
40881.6882439129 110.54566840485222 -6.395273864084052
43560.99030694608 110.44829504435677 -6.291150045097261
46415.888336127726 110.34419814675756 -6.206786498004568
49457.8905312064 110.23229081669291 -6.140946168813466
52699.259315756564 110.1114955345834 -6.092320819053464
56153.06076746278 109.98075573993634 -6.059514227932174
59833.21728796282 109.83905189380553 -6.041026514042184
63754.563724565065 109.68542226426834 -6.035240581746007
67932.90717006689 109.51898847355062 -6.040411902608273
72385.09068173247 109.33898554833004 -6.054663016827864
77129.06117627992 109.14479582236693 -6.075984248267906
82183.94177456807 108.93598556221627 -6.102242127253408
87570.10888760517 108.71234264925606 -6.131196863051162
93309.27435461663 108.47391310293102 -6.16052986275881
99424.57296427398 108.2210337414555 -6.1878817298890105
105940.65571188499 107.95435793587282 -6.210900395537171
112883.78916846884 107.67487131759685 -6.227298076661467
120281.96136227775 107.38389453520716 -6.234914703130711
128164.9945995757 107.08307077898483 -6.231784434145794
136564.66567946097 106.77433680385761 -6.21620105166756
145514.83398731938 106.45987751628904 -6.186777534843371
155051.57798326222 106.14206570925664 -6.142495117877974
165213.34063573685 105.82339003535155 -6.082737683964564
176041.08438655525 105.50637557950466 -6.007308430443387
187578.45627201613 105.19350222688615 -5.916427239350115
199871.96386572486 104.88712627844089 -5.810708905950815
212971.16275234782 104.58941040238834 -5.691124074386378
226928.8562880081 104.30226608720291 -5.5589461672984575
241801.3084525718 104.02731143389292 -5.415688590477706
257648.47065183744 103.76584560253642 -5.263036944878504
274534.22338387143 103.51883973024374 -5.102780884372018
292526.6337436642 103.28694285318093 -4.936749701431464
311698.2298041143 103.07050042071683 -4.766754844979307
332126.2929793748 102.8695824390377 -4.594541537514305
353893.1695490984 102.68401811147088 -4.421750614824115
377086.60259934515 102.51343399046448 -4.249890780411899
401800.0857182091 102.35729303171289 -4.080320723625964
428133.2398719396 102.21493244837721 -3.914240027034648
456192.21498074586 102.08559881681369 -3.7526874805600454
486090.117813063 101.96847941807926 -3.596545298522403
517947.46792312124 101.86272926750793 -3.4465477595094973
551892.6834697374 101.7674936645424 -3.303292913228593
588062.5988746757 101.68192638027864 -3.167256182216292
626603.0164072656 101.60520379613268 -3.0388048958592693
667669.2939187556 101.53653542594162 -2.918213004726553
711426.971095573 101.47517131100923 -2.805675418226046
758052.4367559261 101.42040678872785 -2.7013215786686087
807733.6398796702 101.37158511462475 -2.6052280259928993
860670.8472376158 101.32809837684309 -2.517429819516326
917077.4506742931 101.28938709043355 -2.437930768357223
977180.8272983889 101.25493880320381 -2.3667124841200886
1041223.2560483044 101.22428598991765 -2.3037423120274685
1109462.8943275218 101.19700346030945 -2.2489802238530685
1182174.8186466699 101.17270546033272 -2.202384771346261
1259652.1334671387 101.15104260600803 -2.163918205424511
1342207.152716012 101.13169875525126 -2.1335508667901193
1430172.658735088 101.11438789482725 -2.111264949820757
1523903.2437388273 101.09885109653432 -2.0970577351421333
1623776.739188721 101.08485357822744 -2.0909443783709554
1730195.7388458943 101.07218189065358 -2.092960333948933
1843589.221641486 101.06064123964947 -2.1031634843492024
1964414.2809066267 101.05005294444247 -2.1216360366042677
2093157.9669325738 101.04025202607458 -2.1484862403108105
2230339.250288494 101.0310849148804 -2.1838499741360473
2376511.113811073 101.02240726211038 -2.227892241430836
2532262.7816987946 101.01408183787818 -2.280808609842254
2698222.094696533 101.00597649536262 -2.3428266247740104
2875058.040944877 100.997962179393 -2.414207222105385
3063483.452696084 100.98991095601755 -2.4952461616739816
3264257.879767324 100.98169403825166 -2.5862754995722153
3478190.651314127 100.97317978181324 -2.687665114215923
3706144.138266228 100.9642316231776 -2.7998242983276445
3949037.2295767018 100.95470593064519 -2.9232034263471305
4207849.036297399 100.9444497372496 -3.0582957042462136
4483622.838411906 100.93329832217877 -3.205639006189575
4777470.2903357735 100.92107260489495 -3.365817799848416
5090575.902036676 100.9075763132775 -3.5394651593350903
5424201.813838024 100.8925928838385 -3.727264861567936
5779692.884153313 100.87588204834975 -3.929953558270083
6158482.110660254 100.85717605704697 -4.1483230116110255
6562096.406767555 100.8361754839319 -4.383222376552542
6992162.756659375 100.81254455457811 -4.635560507075583
7450414.7737289015 100.78590593127653 -4.906308256428301
7938699.688838224 100.75583488437661 -5.196500733099883
8458985.7965743 100.72185277235887 -5.507239464106356
9013370.38951742 100.68341974663197 -5.839694405045366
9604088.212505369 100.6399265904473 -6.1951057218616175
10233520.470972575 100.59068559491794 -6.574785251937544
10904204.429677526 100.53492036924528 -6.9801175315047885
11618843.640510991 100.47175447736517 -7.412560251927691
12380318.840613969 100.4001987899344 -7.8736439785587455
13191699.564735716 100.31913743970715 -8.364970931986482
14056256.518642135 100.2273122709531 -8.888212591950198
14977474.763452 100.12330568101065 -9.445105838354777
15959067.76404731 100.00552176608043 -10.037447291119776
17004992.358187906 99.87216570612516 -10.667085450611156
18119464.706671223 99.72122135795223 -11.335910172943262
19306977.288832497 99.55042707452554 -12.04583893970312
20572317.01189553 99.35724983626152 -12.79879930042672
21920584.507173233 99.13885787122693 -13.596706780083837
23357214.690901212 98.8920920612115 -14.441437455739976
24887998.672586672 98.61343658570821 -15.334794320925411
26519107.09918535 98.29898945249239 -16.278466479675327
28257115.02920827 97.94443380846197 -17.273980154130907
30109028.437025927 97.54501122392428 -18.322640462914716
32082312.454210743 97.09549850239301 -19.425462949354124
34184921.46175927 96.59018998817731 -20.583093931052126
36425331.15449638 96.02288782281407 -21.7957189326859
38812572.70691532 95.38690312857688 -23.062958785001186
41356269.17817706 94.67507165212407 -24.38375346211395
44066674.30301786 93.8797879485948 -25.75623442638374
46954713.82493421 92.993062672211 -27.177587194080555
50032029.53825999 92.00660788717634 -28.643907057318433
53311026.21667033 90.91195542045331 -30.150052413428
56804921.61728417 89.7006130184483 -31.689501948646413
60527799.76193343 88.36426229437708 -33.25422394153237
64494667.7103762 86.8950010043603 -34.834568075143146
68721516.05431108 85.28562992187861 -36.41919218171769
73225383.37604526 83.52998138937491 -37.99503800886903
78024424.93165044 81.62328249600176 -39.54737102679253
83137985.83547334 79.56254088136232 -41.059899062828684
88586679.04100814 77.34693570094521 -42.51498270820211
94392468.43247664 74.9781908326754 -43.893946609860876
100578757.36205815 72.46090269750376 -45.17749472446332
107170482.98967092 69.80279201951323 -46.346224445793965
114194216.80558647 67.0148484221679 -47.38122468890631
121678271.7410923 64.1113397754322 -48.264732440753086
129652816.29896688 61.10966514852579 -48.98081229899431
138149996.16383237 58.030040991960746 -49.51601571144021
147204063.78260043 54.89502396854826 -49.859972585396626
156851516.43735445 51.728889165746686 -50.00586889644188
167131243.3672486 48.556897211894416 -49.95077043936115
178084682.5324681 45.4044958688827 -49.69576456032662
189755987.65218505 42.296509037359044 -49.245907263728355
202192206.18983474 39.25636754592434 -48.609980416274766
215443469.00318778 36.30543135667921 -47.80008043194836
229563192.4236905 33.46244271389936 -46.83107350734635
244608293.57967955 30.74313596115026 -45.71996147626826
260639419.83143473 28.160014405716936 -44.48520584702212
277721193.2429355 25.722289890738125 -43.146055721643556
295922471.07579577 23.43596843180867 -41.721919032426854
315316623.3554368 21.304056523724675 -40.23180733897674
335981828.6283788 19.326857932701458 -38.69387393827641
358001389.1028573 17.502329721901287 -37.12505472891772
381464066.4431174 15.826468218882688 -35.54081225663417
406464439.5709628 14.293699697514196 -33.95497632321942
433103285.9168983 12.897255762934122 -32.37966970861468
461487987.6576925 11.629518967332773 -30.825304840195226
491732964.5779006 10.482329420524454 -29.300636324982246
523960135.3002634 9.447247690381223 -27.81285471217553
558299408.7441914 8.51577291529315 -26.367708231146324
594889207.7934331 7.6795177342736745 -24.969641155213367
633877027.2838488 6.9303434491531215 -23.621939553484765
675420028.5605594 6.260459898399596 -22.32687727874181
719685673.0011529 5.662494999182545 -21.085856947745246
766852397.0587026 5.129538957978746 -19.899542318575985
817110331.5457187 4.655167898273303 -18.76797982617389
870662068.0585117 4.233451220569648 -17.690708105838887
927723475.631406 3.8589464829615023 -16.666855140413215
988524570.912824 3.5266850337835 -15.695223246532437
1053310445.3709382 3.232151084638031 -14.77436250874214
1122342253.266415 2.971256409292872 -13.902633516307285
1195898264.3749769 2.7403124061319506 -13.078260391211382
1274274985.7031322 2.5360008748271077 -12.299375147054446
1357788356.7189276 2.355344531605194 -11.564054411747152
1446775022.915648 2.19567801820601 -10.870349501394157
1541593692.8422735 2.054619941637469 -10.216310763308442
1642626584.070927 1.9300463085478665 -9.600007023637916
1750280963.9300976 1.8200655827434247 -9.019540887437051
1864990791.2142942 1.7229954907201428 -8.473060551566666
1987218465.4880533 1.6373416222890143 -7.958768707074338
2117456691.0357118 1.5617778164051623 -7.4749290298413005
2256230462.970635 1.4951282818513083 -7.01987068741547
2404099183.5099645 1.4363513748663066 -6.591991226529066
2561658916.9457216 1.3845249381809952 -6.1897581497923175
2729544792.402002 1.3388330958193828 -5.8117094411304615
2908433564.064045 1.2985543935171524 -5.456453257176494
3099046339.1994267 1.2630511741799644 -5.122666965446106
3302151484.9681754 1.2317600802620678 -4.8090956790638835
3518567725.7392664 1.204183579374448 -4.514550411453561
3749167443.398878 1.1798824151323268 -4.237905952150014
3994880193.954162 1.158468891699351 -3.978098546184055
4256696454.6078672 1.1396009072923874 -3.7341234438329547
4535671616.408702 1.1229766587950338 -3.5050323744728478
4832930238.571753 1.1083299463913772 -3.2899309874239653
5149670581.618343 1.0954260136381897 -3.0879762937021265
5487169437.608587 1.0840578645559518 -2.8983741351866965
5846787276.937577 1.074043005084296 -2.7203767016323237
6229973732.441834 1.065220561589576 -2.5532801109738075
6638273442.923075 1.0574487340239371 -2.3964220643158907
7073332279.644439 1.0506025458226336 -2.249179583709204
7536903980.898541 1.0445718567044613 -2.110966838157607
8030857221.3915205 1.0392596082301966 -1.9812330611721343
8557183144.939984 1.0345802753004139 -1.8594605614903046
9118003390.845663 1.0304584997634751 -1.7451628272398596
9715578646.301847 1.0268278849837955 -1.6378827227793384
10352317759.307377 1.0236299326164162 -1.5371907766403876
11030787448.822151 1.0208131049722171 -1.4426835583850908
11753722651.306368 1.0183319982632701 -1.353982141738311
12524037545.350693 1.0161466137127813 -1.2707306510304168
13344837298.838356 1.014221715020127 -1.1925948877645351
14219430585.991646 1.0125262620081945 -1.1192610339842828
15151342924.760513 1.0110329114655345 -1.0504344290453824
16144330888.31602 1.0097175772459739 -0.9858384163745082
17202397247.93599 1.0085590426180613 -0.9252132568190461
18329807108.324375 1.0075386186793425 -0.8683151052433783
19531105100.40627 1.006639843377849 -0.8149150471030994
20811133700.903908 1.0058482163261422 -0.7647981918220829
22175052752.539295 1.0051509651612553 -0.7177628199037625
23628360263.55175 1.0045368397055208 -0.6736195808230387
25176914570.372772 1.0039959306261639 -0.6321907388661779
26826957952.79727 1.0035195096824217 -0.5933094642098831
28585141796.844658 1.003099888993878 -0.5568191666557446
30458553406.74278 1.0027302970679821 -0.5225728695607651
32454744574.113255 1.0024047695930984 -0.49043262162749074
34581762019.52377 1.0021180532401341 -0.46026894433739485
36848179829.11677 1.0018655209244607 -0.43196031292808235
39263134017.0684 1.0016430971638428 -0.4053926689278943
41836359353.200066 1.0014471923302797 -0.38045896237037136
44578228604.196976 1.0012746447366032 -0.3570587219155139
47499794346.61403 1.0011226696246955 -0.3350976512047715
50612833520.22214 1.0009888142332024 -0.31448724987202165
53929894901.2887 1.0008709182204891 -0.29514445772369
