# HZ S RI R 50
10.0 0.5 4.9999999999999996e-06  0.0 0.0 0.0 0.0 2.0 0.02
10.655379505623058 0.5 5.327689752811529e-06  0.0 0.0 0.0 0.0 2.0 0.021310759011246117
11.35371124088519 0.5 5.676855620442594e-06  0.0 0.0 0.0 0.0 2.0 0.02270742248177038
12.097810206889013 0.5 6.048905103444506e-06  0.0 0.0 0.0 0.0 2.0 0.024195620413778027
12.890675894140264 0.5 6.445337947070131e-06  0.0 0.0 0.0 0.0 2.0 0.02578135178828053
13.735504373605137 0.5 6.8677521868025685e-06  0.0 0.0 0.0 0.0 2.0 0.027471008747210274
14.635701180190798 0.5 7.317850590095399e-06  0.0 0.0 0.0 0.0 2.0 0.029271402360381598
15.594895040582823 0.5 7.797447520291412e-06  0.0 0.0 0.0 0.0 2.0 0.03118979008116565
16.61695250077689 0.5 8.308476250388444e-06  0.0 0.0 0.0 0.0 2.0 0.03323390500155378
17.70599351226899 0.5 8.852996756134495e-06  0.0 0.0 0.0 0.0 2.0 0.03541198702453798
18.866408039732583 0.5 9.433204019866291e-06  0.0 0.0 0.0 0.0 2.0 0.037732816079465166
20.102873757128854 0.5 1.0051436878564427e-05  0.0 0.0 0.0 0.0 2.0 0.04020574751425771
21.42037490358384 0.5 1.071018745179192e-05  0.0 0.0 0.0 0.0 2.0 0.042840749807167684
22.824222375040975 0.5 1.1412111187520488e-05  0.0 0.0 0.0 0.0 2.0 0.04564844475008195
24.320075132679474 0.5 1.2160037566339737e-05  0.0 0.0 0.0 0.0 2.0 0.04864015026535895
25.913963014396586 0.5 1.2956981507198292e-05  0.0 0.0 0.0 0.0 2.0 0.05182792602879317
27.61231104130753 0.5 1.3806155520653765e-05  0.0 0.0 0.0 0.0 2.0 0.05522462208261506
29.421965317243757 0.5 1.4710982658621877e-05  0.0 0.0 0.0 0.0 2.0 0.058843930634487514
31.350220625651154 0.5 1.5675110312825577e-05  0.0 0.0 0.0 0.0 2.0 0.06270044125130231
33.404849835132445 0.5 1.670242491756622e-05  0.0 0.0 0.0 0.0 2.0 0.06680969967026489
35.594135232168604 0.5 1.77970676160843e-05  0.0 0.0 0.0 0.0 2.0 0.0711882704643372
37.926901907322495 0.5 1.8963450953661248e-05  0.0 0.0 0.0 0.0 2.0 0.07585380381464499
40.412553329506004 0.5 2.0206276664753e-05  0.0 0.0 0.0 0.0 2.0 0.080825106659012
43.06110925171171 0.5 2.1530554625855854e-05  0.0 0.0 0.0 0.0 2.0 0.08612221850342343
45.883246101008446 0.5 2.294162305050422e-05  0.0 0.0 0.0 0.0 2.0 0.0917664922020169
48.890340015614456 0.5 2.4445170007807227e-05  0.0 0.0 0.0 0.0 2.0 0.09778068003122892
52.094512702532114 0.5 2.6047256351266057e-05  0.0 0.0 0.0 0.0 2.0 0.10418902540506424
55.50868030059805 0.5 2.7754340150299026e-05  0.0 0.0 0.0 0.0 2.0 0.1110173606011961
59.14660544591749 0.5 2.9573302722958744e-05  0.0 0.0 0.0 0.0 2.0 0.11829321089183498
63.02295274956024 0.5 3.151147637478012e-05  0.0 0.0 0.0 0.0 2.0 0.12604590549912048
67.15334791115141 0.5 3.3576673955575706e-05  0.0 0.0 0.0 0.0 2.0 0.13430669582230284
71.55444070664578 0.5 3.577722035332289e-05  0.0 0.0 0.0 0.0 2.0 0.14310888141329156
76.24397210419139 0.5 3.812198605209569e-05  0.0 0.0 0.0 0.0 2.0 0.15248794420838277
81.2408457786297 0.5 4.062042288931485e-05  0.0 0.0 0.0 0.0 2.0 0.16248169155725942
86.56520431290944 0.5 4.328260215645472e-05  0.0 0.0 0.0 0.0 2.0 0.17313040862581888
92.23851039358476 0.5 4.611925519679238e-05  0.0 0.0 0.0 0.0 2.0 0.18447702078716952
98.28363332770026 0.5 4.914181666385013e-05  0.0 0.0 0.0 0.0 2.0 0.19656726665540053
104.72494122981487 0.5 5.2362470614907434e-05  0.0 0.0 0.0 0.0 2.0 0.20944988245962975
111.5883992507748 0.5 5.5794199625387396e-05  0.0 0.0 0.0 0.0 2.0 0.2231767985015496
118.90167424419899 0.5 5.945083712209949e-05  0.0 0.0 0.0 0.0 2.0 0.237803348488398
126.69424629259063 0.5 6.334712314629531e-05  0.0 0.0 0.0 0.0 2.0 0.25338849258518126
134.99752754264296 0.5 6.749876377132148e-05  0.0 0.0 0.0 0.0 2.0 0.26999505508528593
143.8449888287663 0.5 7.192249441438315e-05  0.0 0.0 0.0 0.0 2.0 0.2876899776575326
153.27229459526134 0.5 7.663614729763067e-05  0.0 0.0 0.0 0.0 2.0 0.3065445891905227
163.31744666101667 0.5 8.165872333050833e-05  0.0 0.0 0.0 0.0 2.0 0.3266348933220334
174.0209374062485 0.5 8.701046870312424e-05  0.0 0.0 0.0 0.0 2.0 0.348041874812497
185.42591299878524 0.5 9.271295649939262e-05  0.0 0.0 0.0 0.0 2.0 0.3708518259975705
197.57834731786994 0.5 9.878917365893496e-05  0.0 0.0 0.0 0.0 2.0 0.3951566946357399
210.5272272765707 0.5 0.00010526361363828534  0.0 0.0 0.0 0.0 2.0 0.4210544545531414
224.32475028984203 0.5 0.00011216237514492102  0.0 0.0 0.0 0.0 2.0 0.44864950057968406
239.02653468423918 0.5 0.00011951326734211959  0.0 0.0 0.0 0.0 2.0 0.47805306936847836
254.691843897454 0.5 0.00012734592194872698  0.0 0.0 0.0 0.0 2.0 0.509383687794908
271.383825371428 0.5 0.000135691912685714  0.0 0.0 0.0 0.0 2.0 0.5427676507428559
289.16976510202994 0.5 0.00014458488255101497  0.0 0.0 0.0 0.0 2.0 0.5783395302040599
308.1213588714002 0.5 0.0001540606794357001  0.0 0.0 0.0 0.0 2.0 0.6162427177428005
328.3150012563047 0.5 0.00016415750062815233  0.0 0.0 0.0 0.0 2.0 0.6566300025126094
349.8320935775036 0.5 0.0001749160467887518  0.0 0.0 0.0 0.0 2.0 0.6996641871550072
372.7593720314938 0.5 0.0001863796860157469  0.0 0.0 0.0 0.0 2.0 0.7455187440629876
397.1892573273302 0.5 0.0001985946286636651  0.0 0.0 0.0 0.0 2.0 0.7943785146546605
423.22022723792753 0.5 0.00021161011361896375  0.0 0.0 0.0 0.0 2.0 0.846440454475855
450.9572135676145 0.5 0.00022547860678380724  0.0 0.0 0.0 0.0 2.0 0.901914427135229
480.5120251361242 0.5 0.00024025601256806207  0.0 0.0 0.0 0.0 2.0 0.9610240502722484
512.0037984840887 0.5 0.0002560018992420444  0.0 0.0 0.0 0.0 2.0 1.0240075969681774
545.5594781168514 0.5 0.0002727797390584257  0.0 0.0 0.0 0.0 2.0 1.091118956233703
581.3143282224713 0.5 0.00029065716411123566  0.0 0.0 0.0 0.0 2.0 1.1626286564449426
619.412477926676 0.5 0.00030970623896333803  0.0 0.0 0.0 0.0 2.0 1.2388249558533522
660.0075022827095 0.5 0.00033000375114135473  0.0 0.0 0.0 0.0 2.0 1.320015004565419
703.2630413380643 0.5 0.0003516315206690322  0.0 0.0 0.0 0.0 2.0 1.4065260826761288
749.3534597735757 0.5 0.0003746767298867878  0.0 0.0 0.0 0.0 2.0 1.4987069195471514
798.4645497739086 0.5 0.0003992322748869543  0.0 0.0 0.0 0.0 2.0 1.5969290995478174
850.7942799627444 0.5 0.0004253971399813722  0.0 0.0 0.0 0.0 2.0 1.701588559925489
906.5535934216358 0.5 0.0004532767967108179  0.0 0.0 0.0 0.0 2.0 1.8131071868432718
965.9672580093833 0.5 0.00048298362900469163  0.0 0.0 0.0 0.0 2.0 1.9319345160187666
1029.2747724096077 0.5 0.0005146373862048039  0.0 0.0 0.0 0.0 2.02906359920985 2.02906359920985
1096.7313315588178 0.5 0.0005483656657794089  0.0 0.0 0.0 0.0 2.094498824596297 2.094498824596297
1168.608855346651 0.5 0.0005843044276733255  0.0 0.0 0.0 0.0 2.1620442690626396 2.1620442690626396
1245.197084735032 0.5 0.000622598542367516  0.0 0.0 0.0 0.0 2.2317679850154963 2.2317679850154963
1326.8047497147245 0.5 0.0006634023748573622  0.0 0.0 0.0 0.0 2.3037402194819836 2.3037402194819836
1413.76081380736 0.5 0.0007068804069036799  0.0 0.0 0.0 0.0 2.3780334848839786 2.3780334848839786
1506.4158001295928 0.5 0.0007532079000647963  0.0 0.0 0.0 0.0 2.4547226320947897 2.4547226320947897
1605.1432043647615 0.5 0.0008025716021823806  0.0 0.0 0.0 0.0 2.5338849258518126 2.5338849258518126
1710.3410003378397 0.5 0.0008551705001689198  0.0 0.0 0.0 0.0 2.61560012260119 2.61560012260119
1822.4332442626664 0.5 0.0009112166221313332  0.0 0.0 0.0 0.0 2.6999505508528605 2.6999505508528605
1941.8717841282548 0.5 0.0009709358920641273  0.0 0.0 0.0 0.0 2.7870211941269876 2.7870211941269876
2069.13808111479 0.5 0.001034569040557395  0.0 0.0 0.0 0.0 2.876899776575326 2.876899776575326
2204.7451503814746 0.5 0.0011023725751907372  0.0 0.0 0.0 0.0 2.9696768513637806 2.9696768513637806
2349.239629049658 0.5 0.001174619814524829  0.0 0.0 0.0 0.0 3.065445891905227 3.065445891905227
2503.203979717325 0.5 0.0012516019898586625  0.0 0.0 0.0 0.0 3.164303386034484 3.164303386034484
2667.2588383874054 0.5 0.0013336294191937026  0.0 0.0 0.0 0.0 3.266348933220335 3.266348933220335
2842.065516274511 0.5 0.0014210327581372555  0.0 0.0 0.0 0.0 3.3716853449125472 3.3716853449125472
3028.3286655749457 0.5 0.0015141643327874728  0.0 0.0 0.0 0.0 3.4804187481249698 3.4804187481249698
3226.7991199458083 0.5 0.0016133995599729042  0.0 0.0 0.0 0.0 3.592658692359077 3.592658692359077
3438.276921143307 0.5 0.0017191384605716533  0.0 0.0 0.0 0.0 3.7085182599757047 3.7085182599757047
3663.614544020716 0.5 0.001831807272010358  0.0 0.0 0.0 0.0 3.8281141801261445 3.8281141801261445
3903.7203328860883 0.5 0.001951860166443044  0.0 0.0 0.0 0.0 3.951566946357401 3.951566946357401
4159.562163071847 0.5 0.0020797810815359236  0.0 0.0 0.0 0.0 4.079000938010114 4.079000938010114
4432.171342476086 0.5 0.0022160856712380426  0.0 0.0 0.0 0.0 4.210544545531413 4.210544545531413
4722.64676880295 0.5 0.002361323384401475  0.0 0.0 0.0 0.0 4.346330299829018 4.346330299829018
5032.159359259993 0.5 0.0025160796796299964  0.0 0.0 0.0 0.0 4.486495005796838 4.486495005796838
5361.956770568817 0.5 0.002680978385284408  0.0 0.0 0.0 0.0 4.6311798801466635 4.6311798801466635
5713.36842831558 0.5 0.00285668421415779  0.0 0.0 0.0 0.0 4.780530693684783 4.780530693684783
6087.810885914762 0.5 0.0030439054429573812  0.0 0.0 0.0 0.0 4.9346979181768615 4.9346979181768615
6486.793534788508 0.5 0.0032433967673942536  0.0 0.0 0.0 0.0 5.09383687794908 5.09383687794908
6911.924688779366 0.5 0.003455962344389683  0.0 0.0 0.0 0.0 5.25810790637825 5.25810790637825
7364.918067322965 0.5 0.0036824590336614824  0.0 0.0 0.0 0.0 5.427676507428557 5.427676507428557
7847.5997035146065 0.5 0.003923799851757303  0.0 0.0 0.0 0.0 5.6027135223977345 5.6027135223977345
8361.915304916318 0.5 0.004180957652458159  0.0 0.0 0.0 0.0 5.783395302040599 5.783395302040599
8909.938096776106 0.5 0.004454969048388053  0.0 0.0 0.0 0.0 5.969903884243399 5.969903884243399
9493.87717927582 0.5 0.00474693858963791  0.0 0.0 0.0 0.0 6.162427177428005 6.162427177428005
10116.086432495807 0.5 0.005058043216247903  0.0 0.0 0.0 0.0 6.361159149870661 6.361159149870661
10779.074004992735 0.5 0.0053895370024963675  0.0 0.0 0.0 0.0 6.566300025126094 6.566300025126094
11485.512424239392 0.5 0.005742756212119696  0.0 0.0 0.0 0.0 6.778056483753847 6.778056483753847
12238.249369681924 0.5 0.006119124684840962  0.0 0.0 0.0 0.0 6.9966418715500724 6.9966418715500724
13040.319151841288 0.5 0.006520159575920644  0.0 0.0 0.0 0.0 7.222276414494612 7.222276414494612
13894.95494373136 0.5 0.00694747747186568  0.0 0.0 0.0 0.0 7.455187440629876 7.455187440629876
14805.6018138991 0.5 0.0074028009069495495  0.0 0.0 0.0 0.0 7.695609609095071 7.695609609095071
15775.930613623614 0.5 0.007887965306811807  0.0 0.0 0.0 0.0 7.943785146546604 7.943785146546604
16809.852774253653 0.5 0.008404926387126827  0.0 0.0 0.0 0.0 8.199964091202753 8.199964091202753
17911.536074332304 0.5 0.008955768037166151  0.0 0.0 0.0 0.0 8.464404544758551 8.464404544758551
19085.42144006686 0.5 0.00954271072003343  0.0 0.0 0.0 0.0 8.737372932424678 8.737372932424678
20336.2408468667 0.5 0.01016812042343335  0.0 0.0 0.0 0.0 9.019144271352289 9.019144271352289
21669.03639411181 0.5 0.010834518197055904  0.0 0.0 0.0 0.0 9.310002447714353 9.310002447714353
23089.180630041927 0.5 0.011544590315020963  0.0 0.0 0.0 0.0 9.610240502722485 9.610240502722485
24602.398208697778 0.5 0.012301199104348888  0.0 0.0 0.0 0.0 9.920160927867608 9.920160927867608
26214.78896621353 0.5 0.013107394483106764  0.0 0.0 0.0 0.0 10.240075969681774 10.240075969681774
27932.85250948253 0.5 0.013966426254741265  0.0 0.0 0.0 0.0 10.570307944328308 10.570307944328308
29763.51441631313 0.5 0.014881757208156564  0.0 0.0 0.0 0.0 10.911189562337029 10.911189562337029
31714.154152689953 0.5 0.015857077076344976  0.0 0.0 0.0 0.0 11.263064263812039 11.263064263812039
33792.63481967431 0.5 0.016896317409837155  0.0 0.0 0.0 0.0 11.626286564449426 11.626286564449426
36007.334849856205 0.5 0.0180036674249281  0.0 0.0 0.0 0.0 12.001222412713833 12.001222412713833
38367.18178112649 0.5 0.019183590890563245  0.0 0.0 0.0 0.0 12.38824955853352 12.38824955853352
40881.6882439129 0.5 0.020440844121956448  0.0 0.0 0.0 0.0 12.787757933885501 12.787757933885501
43560.99030694608 0.5 0.021780495153473037  0.0 0.0 0.0 0.0 13.20015004565419 13.20015004565419
46415.888336127726 0.5 0.023207944168063863  0.0 0.0 0.0 0.0 13.625841381159217 13.625841381159217
49457.8905312064 0.5 0.0247289452656032  0.0 0.0 0.0 0.0 14.065260826761287 14.065260826761287
52699.259315756564 0.5 0.026349629657878283  0.0 0.0 0.0 0.0 14.518851099967458 14.518851099967458
56153.06076746278 0.5 0.02807653038373139  0.0 0.0 0.0 0.0 14.987069195471513 14.987069195471513
59833.21728796282 0.5 0.029916608643981407  0.0 0.0 0.0 0.0 15.470386845578597 15.470386845578597
63754.563724565065 0.5 0.03187728186228253  0.0 0.0 0.0 0.0 15.969290995478174 15.969290995478174
67932.90717006689 0.5 0.03396645358503344  0.0 0.0 0.0 0.0 16.484284293843864 16.484284293843864
72385.09068173247 0.5 0.03619254534086624  0.0 0.0 0.0 0.0 17.01588559925489 17.01588559925489
77129.06117627992 0.5 0.03856453058813996  0.0 0.0 0.0 0.0 17.56463050294881 17.56463050294881
82183.94177456807 0.5 0.04109197088728403  0.0 0.0 0.0 0.0 18.131071868432716 18.131071868432716
87570.10888760517 0.5 0.04378505444380258  0.0 0.0 0.0 0.0 18.715780388496245 18.715780388496245
93309.27435461663 0.5 0.04665463717730831  0.0 0.0 0.0 0.0 19.319345160187666 19.319345160187666
99424.57296427398 0.5 0.049712286482136984  0.0 0.0 0.0 0.0 19.942374278332455 19.942374278332455
105940.65571188499 0.5 0.052970327855942495  0.0 0.0 0.0 0.0 20.585495448192155 20.585495448192155
112883.78916846884 0.5 0.05644189458423442  0.0 0.0 0.0 0.0 21.249356617880817 21.249356617880817
120281.96136227775 0.5 0.06014098068113887  0.0 0.0 0.0 0.0 21.934626631176357 21.934626631176357
128164.9945995757 0.5 0.06408249729978785  0.0 0.0 0.0 0.0 22.641995901384284 22.641995901384284
136564.66567946097 0.5 0.06828233283973048  0.0 0.0 0.0 0.0 23.37217710693302 23.37217710693302
145514.83398731938 0.5 0.07275741699365969  0.0 0.0 0.0 0.0 24.125905909401155 24.125905909401155
155051.57798326222 0.5 0.07752578899163111  0.0 0.0 0.0 0.0 24.903941694700638 24.903941694700638
165213.34063573685 0.5 0.08260667031786842  0.0 0.0 0.0 0.0 25.707068338162316 25.707068338162316
176041.08438655525 0.5 0.08802054219327762  0.0 0.0 0.0 0.0 26.536094994294487 26.536094994294487
187578.45627201613 0.5 0.09378922813600807  0.0 0.0 0.0 0.0 27.39185691201063 27.39185691201063
199871.96386572486 0.5 0.09993598193286242  0.0 0.0 0.0 0.0 28.275216276147198 28.275216276147198
212971.16275234782 0.5 0.10648558137617391  0.0 0.0 0.0 0.0 29.187063076119724 29.187063076119724
226928.8562880081 0.5 0.11346442814400405  0.0 0.0 0.0 0.0 30.128316002591852 30.128316002591852
241801.3084525718 0.5 0.12090065422628589  0.0 0.0 0.0 0.0 31.09992337306134 31.09992337306134
257648.47065183744 0.5 0.12882423532591872  0.0 0.0 0.0 0.0 32.10286408729523 32.10286408729523
274534.22338387143 0.5 0.1372671116919357  0.0 0.0 0.0 0.0 33.138148613576554 33.138148613576554
292526.6337436642 0.5 0.14626331687183208  0.0 0.0 0.0 0.0 34.20682000675679 34.20682000675679
311698.2298041143 0.5 0.15584911490205716  0.0 0.0 0.0 0.0 35.30995495913946 35.30995495913946
332126.2929793748 0.5 0.1660631464896874  0.0 0.0 0.0 0.0 36.44866488525333 36.44866488525333
353893.1695490984 0.5 0.1769465847745492  0.0 0.0 0.0 0.0 37.62409704160876 37.62409704160876
377086.60259934515 0.5 0.18854330129967256  0.0 0.0 0.0 0.0 38.83743568256509 38.83743568256509
401800.0857182091 0.5 0.20090004285910454  0.0 0.0 0.0 0.0 40.089903253473146 40.089903253473146
428133.2398719396 0.5 0.2140666199359698  0.0 0.0 0.0 0.0 41.3827616222958 41.3827616222958
456192.21498074586 0.5 0.22809610749037293  0.0 0.0 0.0 0.0 42.71731335094687 42.71731335094687
486090.117813063 0.5 0.2430450589065315  0.0 0.0 0.0 0.0 44.09490300762949 44.09490300762949
517947.46792312124 0.5 0.2589737339615606  0.0 0.0 0.0 0.0 45.516918521495775 45.516918521495775
551892.6834697374 0.5 0.2759463417348687  0.0 0.0 0.0 0.0 46.98479258099316 46.98479258099316
588062.5988746757 0.5 0.29403129943733786  0.0 0.0 0.0 0.0 48.500004077306045 48.500004077306045
626603.0164072656 0.5 0.3133015082036328  0.0 0.0 0.0 0.0 50.06407959434651 50.06407959434651
667669.2939187556 0.5 0.3338346469593778  0.0 0.0 0.0 0.0 51.678594946796125 51.678594946796125
711426.971095573 0.5 0.3557134855477865  0.0 0.0 0.0 0.0 53.34517676774811 53.34517676774811
758052.4367559261 0.5 0.379026218377963  0.0 0.0 0.0 0.0 55.065504147548715 55.065504147548715
807733.6398796702 0.5 0.4038668199398351  0.0 0.0 0.0 0.0 56.84131032549022 56.84131032549022
860670.8472376158 0.5 0.4303354236188079  0.0 0.0 0.0 0.0 58.67438443605918 58.67438443605918
917077.4506742931 0.5 0.4585387253371465  0.0 0.0 0.0 0.0 60.566573311498914 60.566573311498914
977180.8272983889 0.5 0.4885904136491944  0.0 0.0 0.0 0.0 62.519783342503324 62.519783342503324
1041223.2560483044 0.5102017385427808 0.5102017385427808  0.0 0.0 0.0 0.0 64.53598239891618 64.53598239891618
1109462.8943275218 0.5266552226854685 0.5266552226854685  0.0 0.0 0.0 0.0 66.61720181237041 66.61720181237041
1182174.8186466699 0.5436393148601998 0.5436393148601998  0.0 0.0 0.0 0.0 68.76553842286614 68.76553842286614
1259652.1334671387 0.5611711266332087 0.5611711266332087  0.0 0.0 0.0 0.0 70.98315669134865 70.98315669134865
1342207.152716012 0.5792683214012337 0.5792683214012337  0.0 0.0 0.0 0.0 73.27229088041432 73.27229088041432
1430172.658735088 0.5979491321874897 0.5979491321874897  0.0 0.0 0.0 0.0 75.63524730534272 75.63524730534272
1523903.2437388273 0.6172323800115374 0.6172323800115374  0.0 0.0 0.0 0.0 78.07440665772177 78.07440665772177
1623776.739188721 0.6371374928515667 0.6371374928515667  0.0 0.0 0.0 0.0 80.592226404008 80.592226404008
1730195.7388458943 0.6576845252181882 0.6576845252181882  0.0 0.0 0.0 0.0 83.19124326143694 83.19124326143694
1843589.221641486 0.6788941783594639 0.6788941783594639  0.0 0.0 0.0 0.0 85.87407575377999 85.87407575377999
1964414.2809066267 0.700787821117531 0.700787821117531  0.0 0.0 0.0 0.0 88.64342684952172 88.64342684952172
2093157.9669325738 0.723387511457824 0.723387511457824  0.0 0.0 0.0 0.0 91.50208668511497 91.50208668511497
2230339.250288494 0.7467160186925974 0.7467160186925974  0.0 0.0 0.0 0.0 94.45293537605899 94.45293537605899
2376511.113811073 0.7707968464211359 0.7707968464211359  0.0 0.0 0.0 0.0 97.49894591863182 97.49894591863182
2532262.7816987946 0.795654256209755 0.795654256209755  0.0 0.0 0.0 0.0 100.64318718519986 100.64318718519986
2698222.094696533 0.8213132920354651 0.8213132920354651  0.0 0.0 0.0 0.0 103.88882701612398 103.88882701612398
2875058.040944877 0.8477998055179178 0.8477998055179178  0.0 0.0 0.0 0.0 107.23913541137632 107.23913541137632
3063483.452696084 0.8751404819650506 0.8751404819650506  0.0 0.0 0.0 0.0 110.69748782508272 110.69748782508272
3264257.879767324 0.9033628672586841 0.9033628672586841  0.0 0.0 0.0 0.0 114.26736856631159 114.26736856631159
3478190.651314127 0.9324953956071481 0.9324953956071481  0.0 0.0 0.0 0.0 117.95237430953438 117.95237430953438
3706144.138266228 0.9625674181929061 0.9625674181929061  0.0 0.0 0.0 0.0 121.75621771829525 121.75621771829525
3949037.2295767018 0.9936092327440277 0.9936092327440277  0.0 0.0 0.0 0.0 125.68273118573931 125.68273118573931
4207849.036297399 1.0256521140593187 1.0256521140593187  0.0 0.0 0.0 0.0 129.73587069577016 129.73587069577016
4483622.838411906 1.0587283455178558 1.0587283455178558  0.0 0.0 0.0 0.0 133.9197198087258 133.9197198087258
4777470.2903357735 1.0928712516046633 1.0928712516046633  0.0 0.0 0.0 0.0 138.23849377558733 138.23849377558733
5090575.902036676 1.1281152314853164 1.1281152314853164  0.0 0.0 0.0 0.0 142.69654378486783 142.69654378486783
5424201.813838024 1.1644957936632945 1.1644957936632945  0.0 0.0 0.0 0.0 147.2983613464593 147.2983613464593
5779692.884153313 1.2020495917549858 1.2020495917549858  0.0 0.0 0.0 0.0 152.0485828168525 152.0485828168525
6158482.110660254 1.2408144614184118 1.2408144614184118  0.0 0.0 0.0 0.0 156.95199407029213 156.95199407029213
