#  HZ   S   DB   R     50.00 
! Rohde & Schwarz Vector Network Analyzer 
! Rohde-Schwarz,ZNL6-2Port,1323001206101709,1.40.1.1-21.04.2.40
! Created: UTC 3/14/2023, 9:55:03 AM
! freq[Hz]                db:S11                  ang:S11                 db:S21                  ang:S21                 db:S12                  ang:S12                 db:S22                  ang:S22
 1.000000000000000E4    -5.800251903039196E1    -8.623668956986239E1     1.958260357147883E-3    5.485321624169846E-2    2.002258780733191E-3    7.237971745064146E-2   -5.913909006030948E1    -9.861248874109388E1
 1.090000000000000E4    -5.804642421609968E1    -8.566378817197881E1     1.954717300893124E-3    5.350588281639147E-2    1.881292890122060E-3    7.163600699826160E-2   -5.956296295570834E1    -9.900651831662519E1
 1.180000000000000E4    -5.828933997350936E1    -8.566314447975708E1     1.856225730749329E-3    5.413269386268840E-2    1.557162517083023E-3    7.014524154170676E-2   -5.963733144408593E1    -9.984790308854463E1
 1.270000000000000E4    -5.851957183447070E1    -8.662714361330323E1     1.871665053943167E-3    5.480013370636333E-2    1.745044600756078E-3    6.634051851617104E-2   -5.979206414048717E1    -9.970412253829613E1
 1.360000000000000E4    -5.881210885173459E1    -8.592372448328308E1     1.755291572084257E-3    5.390213677171333E-2    1.568722456236542E-3    6.330796126243028E-2   -5.997394122331507E1    -9.997406188943604E1
 1.450000000000000E4    -5.910331396972805E1    -8.639194149217199E1     1.879882406618824E-3    5.240516687985891E-2    1.832529635397630E-3    6.176124659046663E-2   -6.024720309652872E1    -9.812826852098345E1
 1.540000000000000E4    -5.937818780709758E1    -8.604887584010811E1     1.945911771919712E-3    5.116390251262005E-2    1.876088273412718E-3    5.770433131306990E-2   -6.063219881021511E1    -9.766973514092581E1
 1.630000000000000E4    -5.976410552703221E1    -8.701628601640928E1     1.770900704739923E-3    4.904003110616516E-2    1.564466199813920E-3    5.508408486219749E-2   -6.093877402449684E1    -9.894158576767235E1
 1.720000000000000E4    -6.037349371773079E1    -8.541256220843323E1     1.729130800595368E-3    4.798879354425604E-2    1.512754833607999E-3    5.206228142361530E-2   -6.137190732410371E1    -9.950024139997647E1
 1.810000000000000E4    -6.055761481239227E1    -8.627959637471935E1     1.657586310725051E-3    4.418070261633433E-2    1.380684438539961E-3    4.811606164920099E-2   -6.189250731405058E1    -9.973775968163622E1
 1.900000000000000E4    -6.099168010871993E1    -8.589456939082432E1     1.740881238516330E-3    4.139219655127319E-2    1.352538171827942E-3    4.520048995689542E-2   -6.246591572513191E1    -9.975653712252902E1
 1.990000000000000E4    -6.152889795461999E1    -8.564606951668014E1     1.647515121010278E-3    3.883185471775447E-2    1.194223980740190E-3    4.108185390832171E-2   -6.287782014174498E1    -9.998351803474281E1
 2.080000000000000E4    -6.218487799064208E1    -8.641749505820415E1     1.456093188549757E-3    3.567269674492025E-2    9.014058380768140E-4    3.778109766183908E-2   -6.331749990954605E1    -1.014118321502131E2
 2.170000000000000E4    -6.251386308953208E1    -8.608365612386686E1     1.397110384189684E-3    3.165751049700307E-2    6.976535996735592E-4    3.555002261667640E-2   -6.413610456337375E1    -1.011866248140871E2
 2.260000000000000E4    -6.328467423944234E1    -8.590645117747704E1     1.473986419159098E-3    2.955988604701186E-2    1.015183685431135E-3    3.259008993197032E-2   -6.483420504365094E1    -1.002664259578144E2
 2.350000000000000E4    -6.419122300159029E1    -8.701495606504095E1     1.332118031056614E-3    2.761930485358661E-2    9.497685350430825E-4    2.992921469126212E-2   -6.544544614922478E1    -1.011525878542758E2
 2.440000000000000E4    -6.467045956186215E1    -8.395879818884070E1     1.441205470788357E-3    2.478825575890216E-2    1.164382833598500E-3    2.761098705230863E-2   -6.650762561196495E1    -9.908559409637223E1
 2.530000000000000E4    -6.543139139032482E1    -8.443425660765611E1     1.299030342310429E-3    2.254470759206690E-2    6.724783609198269E-4    2.334559121810318E-2   -6.721678324226446E1    -1.024357783939096E2
 2.620000000000000E4    -6.622365916359291E1    -8.436783090965216E1     1.178828045378176E-3    1.894980091231538E-2    6.598325395516084E-4    2.050058427233087E-2   -6.814010082284570E1    -1.016272915296062E2
 2.710000000000000E4    -6.706854448993882E1    -8.425604282028162E1     1.129706437154059E-3    1.703553845993192E-2    5.900508024146824E-4    1.819502826233662E-2   -6.922602001443182E1    -1.005778782634624E2
 2.800000000000000E4    -6.807080535470729E1    -8.290103261858334E1     1.004063817453964E-3    1.466304087416039E-2    3.349347918096983E-4    1.537966819387425E-2   -7.048975975559247E1    -1.019429553320924E2
 2.890000000000000E4    -6.898883252223102E1    -8.092884276148527E1     1.042445101692450E-3    1.179046834207018E-2    1.918234071198749E-4    1.287261724369767E-2   -7.180215018536640E1    -1.078582767802918E2
 2.980000000000000E4    -7.014986227122802E1    -8.110762144300794E1     9.489369738661051E-4    8.733804423655511E-3    3.137428614287746E-4    1.042449221816084E-2   -7.332471168295085E1    -1.077661679179786E2
 3.070000000000000E4    -7.133167145960384E1    -7.926223658578618E1     7.721438047101047E-4    6.097254623423825E-3    1.098166293944925E-4    7.730817130231192E-3   -7.431737848302970E1    -1.155299458821547E2
 3.160000000000000E4    -7.302154265429860E1    -7.572785586249121E1     8.167838926402765E-4    4.054022794037845E-3    1.188056450213185E-4    4.826315574627824E-3   -7.594088640861065E1    -1.237603820204431E2
 3.250000000000000E4    -7.498776005346600E1    -7.895245044200452E1     5.380339508940359E-4    1.416890115594005E-3    1.617673946278145E-4    3.161832933334463E-3   -7.821607554927755E1    -1.318318024223105E2
 3.340000000000000E4    -7.675289385824212E1    -7.249114063209193E1     5.821062762340840E-4   -1.199064437821214E-3    1.986966861197410E-5    1.274199837248023E-3   -8.166265434673497E1    -1.438190299374248E2
 3.430000000000000E4    -7.823604298274643E1    -6.832632288011494E1     6.695607699419401E-4   -3.691998518312074E-3   -1.474841227525420E-4   -2.327992592522520E-3   -8.195361334407956E1    -1.604134236955863E2
 3.520000000000000E4    -8.058650417362914E1    -6.266846620803710E1     5.370206758660122E-4   -5.846734237739819E-3   -2.307994180180905E-5   -4.290118095676814E-3   -8.442923351760456E1     1.703675402121321E2
 3.610000000000000E4    -8.835620705471747E1    -4.186774869987325E1     3.841667953605194E-4   -7.427516725222111E-3    6.467449252969175E-5   -6.091742972467130E-3   -8.462054239123680E1     1.312774241809068E2
 3.700000000000000E4    -8.837182897706532E1     7.292332318785916       4.859507013190483E-4   -9.798855174110473E-3    5.789403406852934E-5   -8.110121615286540E-3   -8.064031983587613E1     1.196405516646352E2
 3.790000000000000E4    -8.667106448783555E1     4.509361445805587E1     3.883151850462631E-4   -1.253119525645209E-2    8.732007672180011E-5   -9.564223304197770E-3   -7.767011952124216E1     1.114387232495423E2
 3.880000000000000E4    -8.301254830949409E1     7.419942955886702E1     1.583068997778589E-4   -1.412842710008917E-2   -1.008977413669358E-5   -1.188490566652976E-2   -7.602806814195893E1     9.941891686302090E1
 3.970000000000000E4    -7.905728837730409E1     7.723825344888135E1     2.092769358208099E-4   -1.551900518529431E-2    9.285399706080825E-5   -1.422687265836806E-2   -7.422317566102892E1     9.063453289737529E1
 4.060000000000000E4    -7.680344393989965E1     8.276616621304333E1     6.872898453858553E-5   -1.761863013338553E-2    9.994018494989026E-5   -1.615180854956766E-2   -7.296220296056806E1     9.217565730367535E1
 4.150000000000000E4    -7.522930725334804E1     7.995751826266900E1     1.057976847849112E-4   -1.998970594545146E-2   -5.575812607173113E-6   -1.896819970320828E-2   -7.216863335816682E1     9.531680856221162E1
 4.240000000000000E4    -7.305155406292369E1     7.439206054575668E1     2.823438288342587E-4   -2.161065641698708E-2   -2.601586441109282E-4   -2.066877601129039E-2   -7.092856881064652E1     9.727903423026143E1
 4.330000000000000E4    -7.203406475019317E1     7.904574522697351E1     1.088967678027501E-4   -2.377529265114165E-2   -2.309558075408907E-4   -2.235039164089509E-2   -7.004934352218793E1     9.698667102444449E1
 4.420000000000000E4    -7.077721528996243E1     8.423985492625718E1    -2.697885797485219E-5   -2.497100581368087E-2   -1.542003893040577E-4   -2.398304949711587E-2   -6.925089393634077E1     9.457662173021848E1
 4.510000000000000E4    -6.975289763355656E1     8.421450695895818E1    -1.035981380719765E-4   -2.662835949822037E-2   -2.085797359177776E-4   -2.676530960421026E-2   -6.853619647747914E1     9.573669118699274E1
 4.600000000000000E4    -6.926978734614656E1     8.101536493137243E1     4.454994307844181E-5   -2.906428633435010E-2   -3.536611668819268E-4   -2.730389120935005E-2   -6.758527909612279E1     9.478524289158328E1
 4.690000000000000E4    -6.864382543826851E1     8.104191601101650E1     8.265694124091217E-5   -3.140294575376035E-2   -2.816601406030238E-4   -2.970259112190175E-2   -6.728409746353177E1     9.434798391956625E1
 4.780000000000000E4    -6.793644118502944E1     8.146200746337242E1     1.385950145924292E-4   -3.255627401366717E-2   -2.612000090134302E-4   -3.149459384899541E-2   -6.677690880232885E1     9.163553741102864E1
 4.870000000000000E4    -6.748706643225366E1     8.370721550325234E1    -2.392669646941456E-5   -3.517065629458977E-2   -3.069345046140909E-4   -3.300147907354383E-2   -6.615390747131684E1     9.144751903199153E1
 4.960000000000000E4    -6.684094568953819E1     8.536080796509681E1    -2.035287019841250E-4   -3.578303609041215E-2   -7.343017783192316E-4   -3.465282026440414E-2   -6.543604154290294E1     9.098181026935326E1
 5.050000000000000E4    -6.636048045138591E1     8.515028970882936E1    -7.522019644499054E-5   -3.893277681885488E-2   -5.518337637688116E-4   -3.621767645754819E-2   -6.521830426039055E1     9.169655356393871E1
 5.140000000000000E4    -6.582366311166402E1     8.230942991089390E1     1.696204368805329E-4   -3.977035751454389E-2   -3.228179789845159E-4   -3.797294238686225E-2   -6.471777883075517E1     9.096298547368568E1
 5.230000000000000E4    -6.521022649827322E1     8.427473636822421E1    -4.006846938201051E-5   -4.065148040152720E-2   -1.086400042302780E-4   -3.948405103867955E-2   -6.441985845760621E1     8.954658225218191E1
 5.320000000000000E4    -6.496163652101296E1     8.280756027735303E1     3.554052021168974E-5   -4.275979506655275E-2   -6.823805266870916E-5   -4.102168982136400E-2   -6.392028586469421E1     8.956181259655894E1
 5.410000000000000E4    -6.448439451388408E1     8.433153483522301E1    -7.916738605024231E-5   -4.433052494021492E-2   -4.296678801210693E-4   -4.263518991331579E-2   -6.353258564248832E1     9.180015594823664E1
 5.500000000000000E4    -6.421716581498896E1     8.362395228389030E1    -3.995130681394506E-5   -4.675691864765379E-2   -3.891569152702849E-4   -4.427875325225544E-2   -6.318626565674489E1     9.316234029901169E1
 5.590000000000000E4    -6.369033798951978E1     8.336417125759628E1     1.056300514108320E-5   -4.743546907456166E-2   -3.184561407629130E-4   -4.630853278659425E-2   -6.289275616634704E1     9.082501109738941E1
 5.680000000000000E4    -6.342950520869568E1     8.611003682660926E1    -2.353180293131002E-4   -4.976870940068820E-2   -2.270770276243299E-4   -4.782861868489340E-2   -6.268801164454526E1     9.047779548213978E1
 5.770000000000000E4    -6.300550390404456E1     8.648895639111142E1    -2.461557115308062E-4   -5.110990963277179E-2   -3.568159049765650E-4   -4.936076146596401E-2   -6.237395896505351E1     9.167151373880873E1
 5.860000000000000E4    -6.275223223708007E1     8.725031976794479E1    -3.125327186315384E-4   -5.304173228159998E-2   -3.306212269053740E-4   -5.129323165641191E-2   -6.220049020669503E1     9.130379679593054E1
 5.950000000000000E4    -6.237635121407998E1     8.664653010804035E1    -2.468821495840652E-4   -5.398200165231472E-2   -5.471405923453355E-4   -5.334961933201017E-2   -6.196433831011110E1     9.107066542357141E1
 6.040000000000000E4    -6.210604060321104E1     8.669523096563643E1    -3.609590347404589E-4   -5.594975120353433E-2   -3.563089580235358E-4   -5.459517950571940E-2   -6.172937337144300E1     9.062277771776262E1
 6.130000000000000E4    -6.187708368947210E1     8.674647736908524E1    -1.554396702471402E-4   -5.655959440044602E-2   -2.487445194344100E-4   -5.593201335282900E-2   -6.142589938701636E1     8.958444259714997E1
 6.220000000000000E4    -6.158195087578316E1     8.695184257797051E1    -2.360058323110432E-4   -5.874017606412033E-2   -1.177853777877697E-4   -5.738411231911811E-2   -6.117880641436651E1     8.827208995363358E1
 6.310000000000000E4    -6.125147516174628E1     8.556221171729152E1    -1.503852826843053E-4   -5.972308711171849E-2   -3.669387412256594E-4   -5.911632919084810E-2   -6.099373915968740E1     9.012495935422034E1
 6.400000000000000E4    -6.107917293500385E1     8.659155557342162E1    -1.521837797912651E-4   -6.179176893959844E-2   -5.224427108349522E-4   -6.091844716363705E-2   -6.073078048660589E1     9.113154309386942E1
 6.490000000000000E4    -6.081483059391357E1     8.701844314770538E1    -4.585319832914865E-4   -6.416982563025715E-2   -1.611883452172269E-4   -6.263012316067224E-2   -6.058577304508967E1     8.863893751707633E1
 6.580000000000000E4    -6.058870079383416E1     8.813097336553686E1    -4.838557963023291E-4   -6.528713464947884E-2   -1.767693750127658E-4   -6.361149691222644E-2   -6.033605398492385E1     8.857034512993880E1
 6.670000000000000E4    -6.039034845669345E1     8.689143287062818E1    -2.817428100635096E-4   -6.697342264052600E-2   -1.845334534655984E-4   -6.573729291679259E-2   -6.013494596165221E1     8.808179251309126E1
 6.760000000000000E4    -6.016291784310202E1     8.712317616523069E1    -2.801287407385383E-4   -6.770086521454270E-2   -1.569386171047179E-4   -6.633604012812616E-2   -5.989851002007221E1     8.784668711701228E1
 6.850000000000000E4    -5.995817479925592E1     8.788715212777149E1    -3.103145185224505E-4   -6.955101937367357E-2   -2.307890568857229E-4   -6.821241828920803E-2   -5.973698356679078E1     8.797832342775955E1
 6.940000000000000E4    -5.974535774730558E1     8.854250627579292E1    -4.334484574029624E-4   -7.144531204933303E-2   -1.512248364556350E-4   -6.984661498842090E-2   -5.959064880394028E1     8.748626444373330E1
 7.030000000000000E4    -5.963991691898161E1     8.754976022014877E1    -3.614866697007740E-4   -7.330389849897678E-2   -2.756394512620744E-4   -7.084573592591413E-2   -5.940764936859654E1     8.832759170108683E1
 7.120000000000000E4    -5.943816339856927E1     8.735174603363292E1    -3.173660246653212E-4   -7.436169552062788E-2   -2.685615068750709E-4   -7.213954745579718E-2   -5.924479250913780E1     8.809636822928204E1
 7.210000000000000E4    -5.922312539199061E1     8.883066259183674E1    -4.439295591601763E-4   -7.590728429523706E-2   -4.352767514959023E-4   -7.365318828114488E-2   -5.903996565140260E1     8.907580107848240E1
 7.300000000000000E4    -5.901465239032844E1     8.899060421286636E1    -4.797646943483761E-4   -7.658012369485817E-2   -2.037657540059830E-4   -7.524766179582210E-2   -5.890123985659565E1     8.820731419811469E1
 7.390000000000000E4    -5.880122571545836E1     8.909725517561566E1    -5.393107804967360E-4   -7.828106760122204E-2   -4.375507339785870E-4   -7.705998126897075E-2   -5.866961802760951E1     8.903626840778674E1
 7.480000000000000E4    -5.869163831887704E1     8.812412709457162E1    -3.988617902785302E-4   -8.004102573274677E-2   -2.990671600569030E-4   -7.865128594154409E-2   -5.856373947391533E1     8.834108238677058E1
 7.570000000000000E4    -5.853303156650657E1     8.860883223538616E1    -5.759270244421281E-4   -8.196000372482425E-2   -5.494178350869201E-4   -7.935647865734120E-2   -5.832047282535573E1     8.960079988661589E1
 7.660000000000000E4    -5.836486139648495E1     8.895623975698281E1    -7.999255388341049E-4   -8.391974470553458E-2   -4.866242602595679E-4   -8.119736325394515E-2   -5.816434965791177E1     8.943038224088937E1
 7.750000000000000E4    -5.819529829928038E1     8.853009055717480E1    -7.041682050153962E-4   -8.436267318979526E-2   -2.691819902236495E-4   -8.272405734327558E-2   -5.803936880703714E1     8.878467442192783E1
 7.840000000000000E4    -5.800378924840893E1     8.886133861150820E1    -7.195524256089066E-4   -8.575906124309220E-2   -2.986230743581812E-4   -8.319969435540470E-2   -5.785332321590003E1     8.921855307433505E1
 7.930000000000000E4    -5.781490820965839E1     8.828933732022765E1    -6.136052358418350E-4   -8.714175379977100E-2   -2.702847567071579E-4   -8.481980297856449E-2   -5.771205123288722E1     8.830213039510285E1
 8.020000000000000E4    -5.765491372891304E1     8.920113704512352E1    -8.510066216541870E-4   -8.785810830204055E-2   -3.888409051465956E-4   -8.639191557131991E-2   -5.755378290664522E1     8.851834457632266E1
 8.110000000000000E4    -5.754158562510935E1     8.927917734459578E1    -8.605348454004272E-4   -8.956105076304091E-2   -3.999896823671671E-4   -8.859578690027492E-2   -5.741319055529304E1     8.849267165819489E1
 8.200000000000000E4    -5.737261276975313E1     8.867586895801048E1    -7.883087404225015E-4   -9.083947345155044E-2   -4.905863129394651E-4   -8.980401183405393E-2   -5.726889808015131E1     8.879644626996554E1
 8.290000000000000E4    -5.727822638841914E1     8.860016347442735E1    -8.005701143777616E-4   -9.216214469527002E-2   -5.527978378355748E-4   -9.123722034709313E-2   -5.716945038224469E1     8.916789506627030E1
 8.380000000000000E4    -5.715296065237494E1     8.838761099827049E1    -5.391748490617333E-4   -9.397638897266307E-2   -6.644506911610967E-4   -9.191895131236867E-2   -5.698381996500266E1     9.001239527114059E1
 8.470000000000000E4    -5.701007342894604E1     8.787185771396942E1    -4.885456156105742E-4   -9.439436437197395E-2   -3.659309821987136E-4   -9.345121962700217E-2   -5.687246898765991E1     8.887085161389935E1
 8.560000000000000E4    -5.689221140170081E1     8.852489886620886E1    -5.879735527491947E-4   -9.619544309520336E-2   -1.986428322161776E-4   -9.452558393044941E-2   -5.672248468541932E1     8.848251898785973E1
 8.650000000000000E4    -5.673499604420027E1     8.874890519060396E1    -7.458629956578849E-4   -9.756624614907297E-2   -3.679578350345882E-4   -9.607635453600187E-2   -5.658763389726626E1     8.853693860193651E1
 8.740000000000000E4    -5.661131676148065E1     8.838000535557582E1    -6.295103164449427E-4   -9.913672652107393E-2   -1.937288914521377E-5   -9.702959005887958E-2   -5.650586226916804E1     8.803720675012057E1
 8.830000000000000E4    -5.648303418401977E1     8.872286198364502E1    -7.648664591965748E-4   -1.004597495424485E-1   -3.167806417559354E-4   -9.856720299683215E-2   -5.633445389861747E1     8.822055772694995E1
 8.920000000000000E4    -5.634842432030669E1     8.868485424997834E1    -7.183503347168958E-4   -1.020746946232756E-1   -1.749608507111550E-4   -9.996257656375233E-2   -5.621232556252024E1     8.762260096314289E1
 9.010000000000000E4    -5.624767110110309E1     8.831735395498269E1    -7.514050016484066E-4   -1.027317930059520E-1   -1.618808974225694E-4   -1.008312906471008E-1   -5.610221833076726E1     8.831101074319564E1
 9.100000000000000E4    -5.609711224897929E1     8.966583142432670E1    -1.051544681422109E-3   -1.041378943312340E-1   -2.645873269502214E-4   -1.029751453387407E-1   -5.601289426226869E1     8.815164196731504E1
 9.190000000000000E4    -5.593912663607136E1     8.928103685611406E1    -8.824685068757582E-4   -1.052073830708065E-1   -3.583358301052827E-4   -1.042514770340252E-1   -5.585794781435843E1     8.823465489412217E1
