#  HZ   S   DB   R     50.00 
! Rohde & Schwarz Vector Network Analyzer 
! Rohde-Schwarz,ZNL6-2Port,1323001206101709,1.40.1.1-21.04.2.40
! Created: UTC 3/14/2023, 10:05:00 AM
! freq[Hz]                db:S11                  ang:S11                 db:S21                  ang:S21                 db:S12                  ang:S12                 db:S22                  ang:S22
 1.000000000000000E4    -5.070674986066717E1     5.198948130683956      -9.858143206673027E1     7.176495666589985E1    -9.760108464531747E1     4.477904322795290E1    -4.574251191370686E1     9.266327948290797E-1
 1.090000000000000E4    -5.060216153627447E1     3.049395360475565      -9.986216317460719E1     6.108489675456639E1    -1.003800169190011E2     5.264061545887912E1    -4.572837815282161E1     1.169047036801047
 1.180000000000000E4    -5.054985329194533E1     2.721135142425002      -9.507391638884356E1     6.675084911458677E1    -9.877557563125615E1     5.889958902545217E1    -4.573398728124823E1     1.375989327323106
 1.270000000000000E4    -5.052158557545550E1     2.794994455649673      -9.605591945075102E1     7.007224276555853E1    -9.431142723780394E1     6.311642801667571E1    -4.574538991546716E1     1.584178088555357
 1.360000000000000E4    -5.055340076342678E1     3.453192460840845      -9.251436762225248E1     6.517446049374759E1    -9.548559162595005E1     6.630886356023606E1    -4.573379601986616E1     1.722971476988299
 1.450000000000000E4    -5.054445116811952E1     3.555526188854850      -9.302285244615123E1     8.021285205719630E1    -9.374553467839158E1     6.163483240506807E1    -4.572236969483146E1     1.763258466332675
 1.540000000000000E4    -5.056009405449558E1     3.754384214034803      -9.302056304902300E1     7.813553955451412E1    -9.251872161128171E1     6.051840237049959E1    -4.577881555659943E1     1.991244003054711
 1.630000000000000E4    -5.059535529451898E1     4.456921648507078      -9.137146297405508E1     6.505162696362281E1    -9.275463723657688E1     7.701462129970446E1    -4.574855250180698E1     1.992205807623920
 1.720000000000000E4    -5.052308503599499E1     4.990168089804195      -9.363383967554722E1     7.489747239979908E1    -9.374890658752835E1     7.886652379470071E1    -4.576829049050342E1     1.989525721911932
 1.810000000000000E4    -5.051273866920940E1     5.144287492816033      -9.029687476441525E1     6.503147874544742E1    -9.027673026090680E1     7.991654677387824E1    -4.574001583970657E1     2.559817836144652
 1.900000000000000E4    -5.050750264201823E1     5.628310849859384      -9.310110191721324E1     6.446119324052707E1    -9.145762858230059E1     7.941247717640263E1    -4.575313792829225E1     2.970826151732284
 1.990000000000000E4    -5.056007793862723E1     6.158642745144402      -9.128287436485040E1     7.826365112324902E1    -8.880529166788997E1     7.334611847830324E1    -4.580089647751318E1     2.952598013098191
 2.080000000000000E4    -5.051362243547985E1     6.578225104601439      -9.062492454091115E1     6.375057601070495E1    -8.869674489554330E1     7.420915195128163E1    -4.573338235163253E1     2.914268229747190
 2.170000000000000E4    -5.049238248908833E1     7.082125976762568      -9.135077627393669E1     7.738473459694171E1    -8.888792520450639E1     7.168982299131905E1    -4.581977400294072E1     3.455807258136249
 2.260000000000000E4    -5.051440903921858E1     7.268555307063185      -8.929209786453342E1     8.027717016234082E1    -8.920862862635275E1     7.639113529186632E1    -4.581344679596690E1     3.524163450653293
 2.350000000000000E4    -5.054553762093441E1     7.762243365339089      -8.908752063522967E1     7.286065466232409E1    -8.926939366208870E1     7.413963629211605E1    -4.575757936706658E1     3.870387929865764
 2.440000000000000E4    -5.046749096026515E1     8.020805856878514      -8.879257297355844E1     6.464367322102231E1    -8.950809538857953E1     7.704200383347708E1    -4.569948969778057E1     4.136251973153280
 2.530000000000000E4    -5.045310468339530E1     8.006324122255554      -8.806519882730009E1     7.605043365213476E1    -8.931950428514389E1     7.748133905374397E1    -4.568139384896065E1     4.543591504481162
 2.620000000000000E4    -5.039891819057591E1     8.516167753328030      -8.809982309680311E1     8.077562881652936E1    -8.839682065840377E1     7.593212097685227E1    -4.570822139808327E1     4.988231359746544
 2.710000000000000E4    -5.033881970770040E1     9.308597328596100      -8.871795270538856E1     7.232929611996175E1    -8.772518610602131E1     8.400345923346201E1    -4.564903677325100E1     5.220830012876342
 2.800000000000000E4    -5.033663154948119E1     9.453987861815030      -8.716109716101133E1     7.551788153265859E1    -8.688464878402257E1     7.725101080897790E1    -4.563400230760799E1     5.628835130370074
 2.890000000000000E4    -5.033679724112521E1     9.707446440396986      -8.748616623728964E1     7.717974942322245E1    -8.761297814779857E1     8.261113809261698E1    -4.562096824339712E1     6.059877529669389
 2.980000000000000E4    -5.030194421110069E1     1.007968441360858E1    -8.733117691301518E1     7.923354493201813E1    -8.702207848514075E1     7.536660789756156E1    -4.564164039450383E1     6.220471486240077
 3.070000000000000E4    -5.029108336285263E1     1.051789229881060E1    -8.650204727911769E1     8.011949154534467E1    -8.664806890406346E1     8.012300209968370E1    -4.563311754488048E1     6.694030819728108
 3.160000000000000E4    -5.029687254912204E1     1.082121179457886E1    -8.711934387850151E1     8.265809740962527E1    -8.657268944779851E1     8.077199930767634E1    -4.564587145599690E1     6.963394052687196
 3.250000000000000E4    -5.027154999844310E1     1.092793432932156E1    -8.600730475847041E1     7.518210213182232E1    -8.574348478665691E1     8.302594338291948E1    -4.563828515007284E1     7.293181246565891
 3.340000000000000E4    -5.026937163021444E1     1.126696355914042E1    -8.598386515411357E1     8.228703052118372E1    -8.540425407823234E1     8.108396391072439E1    -4.565001033354336E1     7.898235018448354
 3.430000000000000E4    -5.024284602660346E1     1.166936533242463E1    -8.606271042484899E1     8.458215562816564E1    -8.562795879564399E1     7.748947740942388E1    -4.562218599543843E1     8.117849751877440
 3.520000000000000E4    -5.018049924709060E1     1.193862617696167E1    -8.509313458335706E1     8.013775320092915E1    -8.553321134004734E1     8.212608460714314E1    -4.563363084014753E1     8.335580978986233
 3.610000000000000E4    -5.017276997212640E1     1.238913999594246E1    -8.520154908261142E1     8.082275838470164E1    -8.553316425655419E1     8.148284009996581E1    -4.562552190899684E1     8.643412027601661
 3.700000000000000E4    -5.014455836990968E1     1.265165760799624E1    -8.441675514582411E1     8.042598048949600E1    -8.505432263223202E1     7.935392879074551E1    -4.560736169568895E1     8.991523041164474
 3.790000000000000E4    -5.016774496044447E1     1.304397604983094E1    -8.502174365597162E1     8.183282939735233E1    -8.509525924363622E1     8.615834030401531E1    -4.563306699188893E1     9.325253686415630
 3.880000000000000E4    -5.010190536333666E1     1.332360566832595E1    -8.436404381078988E1     8.165721974068342E1    -8.434477801706342E1     8.192988514018273E1    -4.563407169258308E1     9.555897930634591
 3.970000000000000E4    -5.011607120224507E1     1.366483964334715E1    -8.453556467090833E1     8.009943242924753E1    -8.470873599628294E1     8.092062032633629E1    -4.563321359347748E1     9.874458926494064
 4.060000000000000E4    -5.006960172547032E1     1.391395827515398E1    -8.382291554547825E1     8.142052679500435E1    -8.430883030085670E1     8.292896077758104E1    -4.559721171396508E1     1.012229040547422E1
 4.150000000000000E4    -5.007992929163260E1     1.444987689586401E1    -8.433059819558012E1     8.027777023300727E1    -8.402278271220322E1     8.088261530518072E1    -4.564016400868356E1     1.035209803680461E1
 4.240000000000000E4    -5.005465225926806E1     1.461769502368746E1    -8.362367882678799E1     8.216845531653115E1    -8.379804239916604E1     8.150636613441539E1    -4.563589302245961E1     1.071008798981801E1
 4.330000000000000E4    -5.008199249391382E1     1.500175778669601E1    -8.342420429666757E1     8.362037430099150E1    -8.382089794496201E1     8.252924215040417E1    -4.562677616857101E1     1.110330167076260E1
 4.420000000000000E4    -5.005521684431213E1     1.552729541283308E1    -8.360325344795257E1     8.644055585386164E1    -8.337487692035907E1     8.153254373278222E1    -4.559610857916777E1     1.119415397029250E1
 4.510000000000000E4    -4.999799978534369E1     1.550943577060500E1    -8.389062838245138E1     8.179224676072900E1    -8.311850401110009E1     7.951138581887970E1    -4.561406254615434E1     1.159752474687592E1
 4.600000000000000E4    -4.998554991875410E1     1.598902453059200E1    -8.327728439076674E1     8.403653984069902E1    -8.304423867046140E1     8.286752676317964E1    -4.557493896076835E1     1.180381064369721E1
 4.690000000000000E4    -4.992415025768062E1     1.615571603573789E1    -8.294203085417705E1     8.319642820642409E1    -8.269194353612242E1     8.214377150210692E1    -4.557853794784469E1     1.200336210065278E1
 4.780000000000000E4    -4.991110639540313E1     1.644228037869398E1    -8.293717302343326E1     8.282285733953579E1    -8.243244531982435E1     8.385862988631800E1    -4.557163480010826E1     1.241453705534767E1
 4.870000000000000E4    -4.996706430655692E1     1.696148205732221E1    -8.213435655213586E1     8.454953691656439E1    -8.262300544109425E1     8.398093416395126E1    -4.559261580538315E1     1.279440746925836E1
 4.960000000000000E4    -4.995767249048083E1     1.736409840105106E1    -8.223389287946947E1     8.361700171812328E1    -8.277139118360887E1     8.357677021131074E1    -4.559653850731591E1     1.311335099450847E1
 5.050000000000000E4    -4.997259146549366E1     1.778357949969890E1    -8.220081298058611E1     8.093958486965869E1    -8.222528106217766E1     8.607889125241186E1    -4.554007520189747E1     1.324890796003876E1
 5.140000000000000E4    -4.988566990066471E1     1.763206685447981E1    -8.208264553470813E1     8.574502386048940E1    -8.238104092056845E1     8.373383522550641E1    -4.554536454275394E1     1.347635832422879E1
 5.230000000000000E4    -4.990002667793214E1     1.821908174284390E1    -8.201996776345001E1     8.849248911213199E1    -8.164955665906479E1     8.241257441671304E1    -4.553184961475583E1     1.377808779111092E1
 5.320000000000000E4    -4.985930400285313E1     1.843001871339890E1    -8.186550713161390E1     8.163138020681924E1    -8.172059082719457E1     8.296166992802500E1    -4.550927334650765E1     1.404353577561500E1
 5.410000000000000E4    -4.982481700732094E1     1.872273397176444E1    -8.151819962015097E1     8.302132084643507E1    -8.166860793631236E1     7.980653376018205E1    -4.549982280952370E1     1.430927130564359E1
 5.500000000000000E4    -4.975912965352904E1     1.893384117971834E1    -8.164737283589801E1     8.562784917673106E1    -8.125987626469880E1     8.380790426042014E1    -4.550840568467404E1     1.459376949339521E1
 5.590000000000000E4    -4.976032871131416E1     1.927077087301635E1    -8.154053043874231E1     8.143280533694795E1    -8.151660744632073E1     8.440344366320613E1    -4.552579730845221E1     1.495508533168916E1
 5.680000000000000E4    -4.976017026962846E1     1.957434142358180E1    -8.108969137694123E1     8.345860940871917E1    -8.133231857807246E1     8.456177623353942E1    -4.549337609599015E1     1.517812088652586E1
 5.770000000000000E4    -4.972607676627412E1     1.973931026941950E1    -8.115165491568698E1     8.407843622550713E1    -8.127681393876711E1     8.348568375489360E1    -4.550879674016902E1     1.554394337729170E1
 5.860000000000000E4    -4.975916578680835E1     2.031139722899880E1    -8.088600836123221E1     8.618590593981065E1    -8.074470117986372E1     8.409941425776907E1    -4.546209420946425E1     1.571502256923613E1
 5.950000000000000E4    -4.971446206326313E1     2.051436337098287E1    -8.059782088724462E1     8.411972450548687E1    -8.067255011653857E1     8.443086371087578E1    -4.549044104520763E1     1.610940586469073E1
 6.040000000000000E4    -4.975970367493139E1     2.104485174925643E1    -8.055932671933797E1     8.586903605744286E1    -8.048942059311537E1     8.273187637701362E1    -4.542922843505408E1     1.616655897468198E1
 6.130000000000000E4    -4.972110670623116E1     2.127654032484798E1    -8.079691277310067E1     8.395641233495468E1    -8.087983011347576E1     8.289563929440084E1    -4.543753422739569E1     1.656092073360766E1
 6.220000000000000E4    -4.973439346746858E1     2.173233860900951E1    -8.012540589613776E1     8.402199203541375E1    -8.069796986790604E1     8.436802893433361E1    -4.539522398989313E1     1.673963124333742E1
 6.310000000000000E4    -4.969522659079212E1     2.201541045268524E1    -8.041295805911417E1     8.498614562315940E1    -8.062652687038259E1     8.443493230786393E1    -4.536423872305352E1     1.692250887272092E1
 6.400000000000000E4    -4.966018018158184E1     2.224910759535132E1    -7.987428351149592E1     8.406538055824859E1    -8.012031206226558E1     8.404753920484774E1    -4.535234670505328E1     1.712882584403055E1
 6.490000000000000E4    -4.965906042690786E1     2.274557616063095E1    -7.989471314727182E1     8.464162486755026E1    -8.009914809554130E1     8.476839802075969E1    -4.533038453166447E1     1.740163788724155E1
 6.580000000000000E4    -4.962480428726287E1     2.293077305451516E1    -7.975932215790350E1     8.497761310679799E1    -7.929272338023335E1     8.470528214060960E1    -4.532731671145919E1     1.768138591967186E1
 6.670000000000000E4    -4.957148140661041E1     2.294158573562567E1    -7.983290747577969E1     8.596605572629642E1    -7.971485079965370E1     8.415615287407638E1    -4.531265694960850E1     1.798647383935995E1
 6.760000000000000E4    -4.957564259580601E1     2.346976187880929E1    -7.957096428463049E1     8.572440858914990E1    -7.971100653337609E1     8.333395954497824E1    -4.527651622412591E1     1.803552641320119E1
 6.850000000000000E4    -4.951840978509325E1     2.362080532036290E1    -7.939208371798712E1     8.533250057369516E1    -7.954936743199119E1     8.515615354048839E1    -4.527198302807100E1     1.833999234801933E1
 6.940000000000000E4    -4.954485810027995E1     2.407602279533837E1    -7.952927648279952E1     8.497374779208208E1    -7.933846982983925E1     8.518418177762418E1    -4.527182751099556E1     1.861372612258775E1
 7.030000000000000E4    -4.946024569127728E1     2.410908350633695E1    -7.929140906619388E1     8.625921294716245E1    -7.917306415005905E1     8.575661755237958E1    -4.527470837722707E1     1.896920441772965E1
 7.120000000000000E4    -4.947296829710024E1     2.457469191706942E1    -7.958165343429766E1     8.434323488201177E1    -7.931960463151492E1     8.466153857731069E1    -4.525186108528305E1     1.908999274141591E1
 7.210000000000000E4    -4.947305475183677E1     2.487485909740871E1    -7.918860715167348E1     8.429257552112972E1    -7.900514213561381E1     8.413764618945598E1    -4.523766339403372E1     1.942216871381511E1
 7.300000000000000E4    -4.943526224809527E1     2.508980825033165E1    -7.911613199840336E1     8.696596069855825E1    -7.916302888452604E1     8.504360279089150E1    -4.522398229287893E1     1.972813542869630E1
 7.390000000000000E4    -4.944614311578939E1     2.540411721340670E1    -7.905649432919728E1     8.578444367602974E1    -7.876223176413657E1     8.610907923696331E1    -4.520475120087612E1     1.986433727527347E1
 7.480000000000000E4    -4.938830306190489E1     2.551479870606340E1    -7.869668944681048E1     8.473137148188260E1    -7.886599359860033E1     8.358418092711221E1    -4.518275119576808E1     2.012064076744543E1
 7.570000000000000E4    -4.936050301316985E1     2.582997325999814E1    -7.878582422541314E1     8.601280148670843E1    -7.872454885571493E1     8.540903266718969E1    -4.519809315773845E1     2.049274697104240E1
 7.660000000000000E4    -4.931189563891760E1     2.598662334402022E1    -7.859878524991184E1     8.761558745610385E1    -7.867273474723828E1     8.433517324176373E1    -4.517219449383096E1     2.066940616700336E1
 7.750000000000000E4    -4.932936891607309E1     2.626961118608043E1    -7.840380586058797E1     8.517995913488295E1    -7.852916679732803E1     8.609107487097923E1    -4.516394021769655E1     2.093877112157958E1
 7.840000000000000E4    -4.930013250095199E1     2.664306927664290E1    -7.855838120099747E1     8.440176972964353E1    -7.817444119904368E1     8.393530033011891E1    -4.511632498744014E1     2.099368016700031E1
 7.930000000000000E4    -4.924261916074943E1     2.672113770731035E1    -7.842739661481438E1     8.554065557436570E1    -7.831129216863526E1     8.532037931917000E1    -4.510238944009273E1     2.124612974675242E1
 8.020000000000000E4    -4.923345116898222E1     2.709104004078159E1    -7.811876682261899E1     8.550526371536344E1    -7.816704938076201E1     8.473427413247755E1    -4.510941597264680E1     2.155079782283070E1
 8.110000000000000E4    -4.924281433333302E1     2.740912641947181E1    -7.808697643767050E1     8.616832302466463E1    -7.823188528460909E1     8.573431367243916E1    -4.507499204107476E1     2.177738697712134E1
 8.200000000000000E4    -4.917680370581041E1     2.747922239655371E1    -7.810344582298511E1     8.625131671381027E1    -7.836202595692960E1     8.482763676761891E1    -4.505786295320836E1     2.204006403971803E1
 8.290000000000000E4    -4.918076780916277E1     2.781044342894150E1    -7.801525132730015E1     8.586847565982855E1    -7.810796625649958E1     8.583073294876834E1    -4.504021352933040E1     2.227907767792303E1
 8.380000000000000E4    -4.913803455684895E1     2.784547406804389E1    -7.780792699873965E1     8.609867137921471E1    -7.778970950936964E1     8.630341201047230E1    -4.501567245214996E1     2.247735469868169E1
 8.470000000000000E4    -4.912306473822748E1     2.825385752643078E1    -7.788880423392375E1     8.669194789619343E1    -7.762651510584412E1     8.438388743417491E1    -4.502021740695074E1     2.277208158248539E1
 8.560000000000000E4    -4.909919477007624E1     2.845595057447645E1    -7.762012426903746E1     8.461820607626208E1    -7.772706322940165E1     8.588657365788805E1    -4.499151647766023E1     2.289224847862309E1
 8.650000000000000E4    -4.906297376820952E1     2.870613326120591E1    -7.768668963771592E1     8.617123747689124E1    -7.744297123506649E1     8.604438496934007E1    -4.497040068978394E1     2.311661869502924E1
 8.740000000000000E4    -4.904381142259149E1     2.893118773570601E1    -7.743775559547798E1     8.429418850750336E1    -7.773481491458716E1     8.676150781468476E1    -4.497910969596851E1     2.350326657873818E1
 8.830000000000000E4    -4.899926345456481E1     2.918187830801068E1    -7.721766104423865E1     8.595242513538108E1    -7.739334918312510E1     8.520350790163846E1    -4.495685679579526E1     2.373861354650379E1
 8.920000000000000E4    -4.897346837087613E1     2.954135338506689E1    -7.734255937405112E1     8.507990655975105E1    -7.729035003181937E1     8.424482689183971E1    -4.494575559562782E1     2.397025030402530E1
 9.010000000000000E4    -4.895431669927271E1     2.967564015359618E1    -7.704841334425187E1     8.574505128810253E1    -7.744604926512436E1     8.525705564395243E1    -4.494627899047768E1     2.418016205130069E1
 9.100000000000000E4    -4.896028054183031E1     3.010676282344821E1    -7.726378663658923E1     8.513334273053667E1    -7.710328735856659E1     8.519600386344230E1    -4.490336346845298E1     2.433083705553279E1
 9.190000000000000E4    -4.890272284536965E1     3.012295000620662E1    -7.697393366324989E1     8.553539674742733E1    -7.711700115376557E1     8.589841888338572E1    -4.491092351782300E1     2.464185532815182E1
