# Hz S RI R 50
10.0 200.60676784593306 -6.2647610123395445
10.969857978923836 200.52717128213402 -6.866867618319496
12.033778407775893 200.43155503041282 -7.5256266718560605
13.200884008314182 200.31673583393234 -8.24598207134439
14.481182276745338 200.17891602564129 -9.03318529259629
15.885651294280526 200.01357297382484 -9.892772690657903
17.4263338600965 199.81533222003424 -10.830525213561256
19.116440753857017 199.5778235612558 -11.852404699052858
20.970464013232327 199.29352018601753 -12.96445947880652
23.00430119772918 198.95356236179148 -14.17269037500677
25.23539170434766 198.54756929104468 -15.482866416499522
27.682866303920665 198.0634458516497 -16.900277883635706
30.367711180354576 197.48719529131196 -18.42941289660345
33.31294787934674 196.80275482971308 -20.073543157787093
36.54383070957256 195.99187873838957 -21.834205356326162
40.08806328898464 195.03410282337427 -23.710568157071265
43.97603609302721 193.90683494393215 -25.698681965781027
48.241087041653685 192.58562720606568 -27.79062138667485
52.91978735958442 191.04469469853214 -29.97355009438651
58.05225516094899 189.25774966048937 -32.228765884820554
63.68249944718586 187.19921382529287 -34.53081976917201
69.8587974678525 184.84584918533062 -36.84684438424546
76.63410868007459 182.17880230872828 -39.136266982852895
84.06652885618325 179.18598567842685 -41.351109110006156
92.21978823334327 175.86462338040818 -43.437072402248255
101.1637979766207 172.2236800506768 -45.33555981750151
110.97524964120721 168.2857962896818 -46.98667104158257
121.7382727739662 164.08830661283613 -48.333041202700954
133.54515629298987 159.68295495240187 -49.32418778258228
146.49713983072849 155.13407077542948 -49.92084125921302
160.70528182616385 150.51521686208446 -50.098624789951266
176.2914118095948 145.90461744654513 -49.85047276351114
193.38917504552322 141.37994097890862 -49.18735644912548
212.14517849106298 137.0131608252447 -48.13718289501718
232.72024789604072 132.86619892965905 -46.74206972615646
255.29080682395167 128.98787817600262 -45.05447685899665
280.0503894183631 125.41242945712638 -43.13282330122556
307.21129988617594 122.15950616506157 -41.03721032322042
337.0064329271928 119.23542897589357 -38.82574016839071
369.6912707195028 116.63525914631174 -36.55172189578725
405.54607358408276 114.34528029341998 -34.261855636701185
444.87828311275854 112.3455291946048 -31.995328144017495
488.02515836544336 110.61211719700148 -29.783655124898257
535.3566677410724 109.11919130266705 -27.651067026916
587.2786613189483 107.84047562483102 -25.615239968480815
644.236350872137 106.75039991732842 -23.688204325491093
706.7181273927491 105.82486180497247 -21.877304571913843
775.2597488629465 105.04168787247218 -20.18612467423588
850.4489341802678 104.3808623013298 -18.61532787431611
932.9304026284686 103.82458626997729 -17.163385968426866
1023.4114021054527 103.3572214941749 -15.827191393278618
1122.6677735108135 102.96516020604507 -14.602556874597045
1231.550603292826 102.63665338108898 -13.48461373236965
1350.9935211980264 102.36162001172065 -12.468122725967074
1482.0207057988587 102.1314529761081 -11.547711834636853
1625.755666443795 101.9388315012674 -10.71805455181654
1783.4308769319093 101.77754614373569 -9.974000780408797
1956.3983435170649 101.64233933007579 -9.310670673564864
2146.1411978584038 101.52876254002838 -8.723520024898786
2354.286414322418 101.43304993952468 -8.208384210390985
2582.6187606826775 101.35200748549704 -7.761506283385246
2833.096101839324 101.28291607926667 -7.379553640238948
3107.866187782014 101.22344712768843 -7.059626697881855
3409.285069746811 101.17158879922535 -6.799262233476339
3739.937302478798 101.12558127744882 -6.596433403252625
4102.658105827195 101.08385937661814 -6.449547954566602
4500.557675700497 101.04500096541898 -6.357445746167201
4937.047852839004 101.00767972729581 -6.319396373095023
5415.871378079471 100.97062085719331 -6.335097433881563
5941.133984965034 100.93255834748292 -6.404673760572562
6517.339604882427 100.89219254603434 -6.528677740273601
7149.428986597577 100.84814667466534 -6.708090675373434
7842.822061337682 100.79892097622144 -6.944324943827484
8603.464416684501 100.74284311465279 -7.239226516150063
9437.878277775382 100.67801338802909 -7.595077146387946
10353.218432956615 100.60224323548448 -8.014595262996885
11357.333583431051 100.51298543546928 -8.50093422261952
12458.833642950081 100.40725431977343 -9.057676132970698
13667.163564620074 100.28153428892325 -9.688818875294626
14992.684327860472 100.13167494433421 -10.398753234848254
16446.761779946628 99.95277130125358 -11.192226151666532
18041.864093920718 99.7390278853718 -12.074285008377247
19791.668678535574 99.48360614398963 -13.05019656102491
21711.179456945054 99.1784556535523 -14.125332596305132
23816.855519761608 98.81413125422752 -15.305012704199674
26126.752255633266 98.37960070877894 -16.594292790214475
28660.676169482504 97.86205102768744 -17.99768631540286
31440.354715915 97.24670650732808 -19.518804090339316
34489.6226040576 96.5166780512754 -21.159898311998777
37834.62617131933 95.65287163343848 -22.921298239707316
41504.047578504724 94.63399370274466 -24.80072959488086
45529.35074866948 93.43670232275583 -26.79251889032174
49945.0511585514 92.03596349104512 -28.886699097126144
54789.01179593945 90.40567984545588 -31.068055867153106
60102.76782070388 88.5196598361698 -33.31518472335911
65931.88271333542 86.35298393233539 -35.599668228052145
72326.33896483533 83.88379412849785 -37.885524061273074
79340.96665797492 81.09547817814723 -40.12911165604922
87035.91361485166 77.97913844118852 -42.27970291794098
95477.16114208066 74.53613239472784 -44.280904107770965
104737.08979594486 70.78036458882667 -46.073044144839
114895.10001873085 66.73992776413786 -47.59651063468656
126038.29296797274 62.45767196620185 -48.795828051906085
138262.21737646565 57.99035903585282 -49.62406688035945
151671.68884709242 53.406248624631324 -50.04700515219381
166381.68860761274 48.781236508768494 -50.04639900064941
182518.34943190424 44.19396210768842 -49.621801534703195
200220.03718155844 39.72053282311803 -48.79059952971006
219638.5372416547 35.42960227846424 -47.58626100844947
240940.35602395269 31.37845684483412 -46.05511236811631
264308.1486974108 27.610538588434945 -44.25219907719296
289942.2853882875 24.154537553726147 -42.2368730078699
318062.5692794119 21.024909309904523 -40.06868998075183
348910.1213406774 18.223480678406847 -37.8040366781338
382749.4478516315 15.741723585272425 -35.49370077631871
419870.70844439144 13.563292498045367 -33.18140967027966
460592.2041145104 11.666501174134678 -30.903226731606903
505263.10653356795 10.02652135115642 -28.68761978003636
554266.4520663107 8.617189443242422 -26.555996140888556
608022.4261649427 7.412389883554261 -24.52351542351143
666991.9663030129 6.387039669871104 -22.600027403991408
731680.7143427192 5.5177298709435165 -20.791024304822788
802643.3522257174 4.783091998165799 -19.098535600470775
880488.3581643464 4.1639566634468075 -17.521925005843954
965883.2241158709 3.6433643753989755 -16.058572445601193
1059560.179277617 3.2064777360787375 -14.704439283795596
1162322.4686798519 2.8404332905479626 -13.454524426208843
1275051.2407130129 2.5341612861526572 -12.303223743588836
1398713.1026472386 2.278193243256431 -11.244607065379629
1534368.4089300132 2.0644706521217087 -10.27262691070133
1683180.3533309584 1.8861631521208315 -9.38127198809086
1846424.9428955426 1.7375009639319787 -8.564676868416415
2025501.9392306665 1.61362385094418 -7.8171974688909875
2221946.8609395237 1.5104472213030353 -7.133460284425544
2437444.1501222216 1.4245449257120115 -6.50839177053562
2673841.6158399493 1.3530476819254345 -5.937232961765426
2933166.2783900425 1.2935557300776215 -5.41554330616204
3217641.7502507353 1.2440641939888877 -4.939196794750473
3529707.30273065 1.2028996208030533 -4.504372741026522
3872038.781812557 1.1686662446285168 -4.107542992209055
4247571.552536903 1.140200635084216 -3.745456905186488
4659525.668664677 1.1165335261200586 -3.4151250721387316
5111433.483440165 1.096857759666039 -3.113802513375165
5607169.938205458 1.0805014136884934 -2.8389718510098616
6150985.788580504 1.0669053100464179 -2.5883268228139795
6747544.0531107 1.0556042116290627 -2.3597563797848022
7401959.996915637 1.0462111197287496 -2.151329524795369
8119844.993184009 1.0384041715756867 -1.9612809861806006
8907354.63861044 1.0319157151349585 -1.7879977738523378
9771241.535346502 1.0265232046475428 -1.6300066323174582
10718913.192051286 1.0220416171233546 -1.4859623815683654
11758495.54052158 1.0183171382180645 -1.3546371207463455
12898902.612533081 1.0152219067510742 -1.2349102588571654
14149912.974345759 1.0126496415688293 -1.1257593302097828
15522253.57427048 1.0105120034434776 -1.0262515485680117
17027691.722259015 1.008735569033571 -0.9355360524334158
18679135.990207847 1.0072593143298894 -0.8528367938027249
20490746.89815846 1.0060325220781792 -0.7774460237065136
22478058.335487254 1.005013041937213 -0.7087183294982873
24658110.758226037 1.0041658440431342 -0.6460651809739695
27049597.30463137 1.0034618165897846 -0.5889499447778902
29673024.081888724 1.0028767663210214 -0.5368833290604734
32550885.998350564 1.0023905877357346 -0.4894192229001403
35707859.64900462 1.0019865725570771 -0.4461508975214201
39171014.9080926 1.001650835805292 -0.40670753878759563
42970047.04320844 1.001371838798423 -0.3707510827896318
47137531.341167286 1.0011399927209297 -0.3379733285754384
51709202.42896755 1.000947329158533 -0.3080933041544327
56724260.684919775 1.0007872262918132 -0.28085486386786124
62225708.36730231 1.0006541813489562 -0.25602449703535685
68260718.34272392 1.0005436215044468 -0.2333893294756649
74881038.5759003 1.0004517467294798 -0.2127553010592573
82143435.84919421 1.000375399196387 -0.1939455038886951
90110182.51665018 1.0003119547508992 -0.17679866702593758
98849590.46625586 1.0002592327237525 -0.16116777490149556
108436596.86896087 1.0002154209829555 -0.14691880765559995
118953406.73703207 1.0001790136514772 -0.1339295926836199
130490197.80144016 1.0001487593501979 -0.12208875759371893
143145893.75234815 1.000123618187536 -0.1112947756408237
157029012.47293773 1.0001027260176925 -0.10145509548375439
172258596.5398784 1.0000853647391916 -0.09248534782764192
188965233.96912116 1.0000709376129546 -0.08430862216719506
207292177.959537 1.000058948751635 -0.07685480744301246
227396575.2357932 1.000048986075288 -0.0700599909678095
249450813.52303165 1.000040707147567 -0.06386591047653772
273643999.70746666 1.0000338274056477 -0.05821945460794468
300183581.3575592 1.00002811037933 -0.05307220753896235
329297125.5097148 1.0000233595631505 -0.048380033870786064
361234269.97094375 1.0000194116621406 -0.044102700209814764
396268863.8701478 1.000016130979082 -0.0402035302006386
434701315.8125017 1.0000134047503415 -0.0366490900546071
476861169.7714474 1.0000111392699707 -0.03340890187864595
523109930.8056258 1.0000092566688554 -0.030455182347083547
573844164.8302405 1.0000076922382037 -0.027762604476348
629498899.0221888 1.0000063922053766 -0.02530808046033946
690551352.0162317 1.0000053118856183 -0.023070563704742763
757525025.877192 1.0000044141461526 -0.021030868363085615
830994194.9353421 1.0000036681298556 -0.019171504827344674
911588829.9750837 1.0000030481946351 -0.017476529762655624
1000000000.0 1.0000025330320599 -0.015931409400354552
