# Hz S RI R 50
10.0 0.5 4.9999999999999996e-06
10.655379505623058 0.5 5.327689752811529e-06
11.35371124088519 0.5 5.676855620442594e-06
12.097810206889013 0.5 6.048905103444506e-06
12.890675894140264 0.5 6.445337947070131e-06
13.735504373605137 0.5 6.8677521868025685e-06
14.635701180190798 0.5 7.317850590095399e-06
15.594895040582823 0.5 7.797447520291412e-06
16.61695250077689 0.5 8.308476250388444e-06
17.70599351226899 0.5 8.852996756134495e-06
18.866408039732583 0.5 9.433204019866291e-06
20.102873757128854 0.5 1.0051436878564427e-05
21.42037490358384 0.5 1.071018745179192e-05
22.824222375040975 0.5 1.1412111187520488e-05
24.320075132679474 0.5 1.2160037566339737e-05
25.913963014396586 0.5 1.2956981507198292e-05
27.61231104130753 0.5 1.3806155520653765e-05
29.421965317243757 0.5 1.4710982658621877e-05
31.350220625651154 0.5 1.5675110312825577e-05
33.404849835132445 0.5 1.670242491756622e-05
35.594135232168604 0.5 1.77970676160843e-05
37.926901907322495 0.5 1.8963450953661248e-05
40.412553329506004 0.5 2.0206276664753e-05
43.06110925171171 0.5 2.1530554625855854e-05
45.883246101008446 0.5 2.294162305050422e-05
48.890340015614456 0.5 2.4445170007807227e-05
52.094512702532114 0.5 2.6047256351266057e-05
55.50868030059805 0.5 2.7754340150299026e-05
59.14660544591749 0.5 2.9573302722958744e-05
63.02295274956024 0.5 3.151147637478012e-05
67.15334791115141 0.5 3.3576673955575706e-05
71.55444070664578 0.5 3.577722035332289e-05
76.24397210419139 0.5 3.812198605209569e-05
81.2408457786297 0.5 4.062042288931485e-05
86.56520431290944 0.5 4.328260215645472e-05
92.23851039358476 0.5 4.611925519679238e-05
98.28363332770026 0.5 4.914181666385013e-05
104.72494122981487 0.5 5.2362470614907434e-05
111.5883992507748 0.5 5.5794199625387396e-05
118.90167424419899 0.5 5.945083712209949e-05
126.69424629259063 0.5 6.334712314629531e-05
134.99752754264296 0.5 6.749876377132148e-05
143.8449888287663 0.5 7.192249441438315e-05
153.27229459526134 0.5 7.663614729763067e-05
163.31744666101667 0.5 8.165872333050833e-05
174.0209374062485 0.5 8.701046870312424e-05
185.42591299878524 0.5 9.271295649939262e-05
197.57834731786994 0.5 9.878917365893496e-05
210.5272272765707 0.5 0.00010526361363828534
224.32475028984203 0.5 0.00011216237514492102
239.02653468423918 0.5 0.00011951326734211959
254.691843897454 0.5 0.00012734592194872698
271.383825371428 0.5 0.000135691912685714
289.16976510202994 0.5 0.00014458488255101497
308.1213588714002 0.5 0.0001540606794357001
328.3150012563047 0.5 0.00016415750062815233
349.8320935775036 0.5 0.0001749160467887518
372.7593720314938 0.5 0.0001863796860157469
397.1892573273302 0.5 0.0001985946286636651
423.22022723792753 0.5 0.00021161011361896375
450.9572135676145 0.5 0.00022547860678380724
480.5120251361242 0.5 0.00024025601256806207
512.0037984840887 0.5 0.0002560018992420444
545.5594781168514 0.5 0.0002727797390584257
581.3143282224713 0.5 0.00029065716411123566
619.412477926676 0.5 0.00030970623896333803
660.0075022827095 0.5 0.00033000375114135473
703.2630413380643 0.5 0.0003516315206690322
749.3534597735757 0.5 0.0003746767298867878
798.4645497739086 0.5 0.0003992322748869543
850.7942799627444 0.5 0.0004253971399813722
906.5535934216358 0.5 0.0004532767967108179
965.9672580093833 0.5 0.00048298362900469163
1029.2747724096077 0.5 0.0005146373862048039
1096.7313315588178 0.5 0.0005483656657794089
1168.608855346651 0.5 0.0005843044276733255
1245.197084735032 0.5 0.000622598542367516
1326.8047497147245 0.5 0.0006634023748573622
1413.76081380736 0.5 0.0007068804069036799
1506.4158001295928 0.5 0.0007532079000647963
1605.1432043647615 0.5 0.0008025716021823806
1710.3410003378397 0.5 0.0008551705001689198
1822.4332442626664 0.5 0.0009112166221313332
1941.8717841282548 0.5 0.0009709358920641273
2069.13808111479 0.5 0.001034569040557395
2204.7451503814746 0.5 0.0011023725751907372
2349.239629049658 0.5 0.001174619814524829
2503.203979717325 0.5 0.0012516019898586625
2667.2588383874054 0.5 0.0013336294191937026
2842.065516274511 0.5 0.0014210327581372555
3028.3286655749457 0.5 0.0015141643327874728
3226.7991199458083 0.5 0.0016133995599729042
3438.276921143307 0.5 0.0017191384605716533
3663.614544020716 0.5 0.001831807272010358
3903.7203328860883 0.5 0.001951860166443044
4159.562163071847 0.5 0.0020797810815359236
4432.171342476086 0.5 0.0022160856712380426
4722.64676880295 0.5 0.002361323384401475
5032.159359259993 0.5 0.0025160796796299964
5361.956770568817 0.5 0.002680978385284408
5713.36842831558 0.5 0.00285668421415779
6087.810885914762 0.5 0.0030439054429573812
6486.793534788508 0.5 0.0032433967673942536
6911.924688779366 0.5 0.003455962344389683
7364.918067322965 0.5 0.0036824590336614824
7847.5997035146065 0.5 0.003923799851757303
8361.915304916318 0.5 0.004180957652458159
8909.938096776106 0.5 0.004454969048388053
9493.87717927582 0.5 0.00474693858963791
10116.086432495807 0.5 0.005058043216247903
10779.074004992735 0.5 0.0053895370024963675
11485.512424239392 0.5 0.005742756212119696
12238.249369681924 0.5 0.006119124684840962
13040.319151841288 0.5 0.006520159575920644
13894.95494373136 0.5 0.00694747747186568
14805.6018138991 0.5 0.0074028009069495495
15775.930613623614 0.5 0.007887965306811807
16809.852774253653 0.5 0.008404926387126827
17911.536074332304 0.5 0.008955768037166151
19085.42144006686 0.5 0.00954271072003343
20336.2408468667 0.5 0.01016812042343335
21669.03639411181 0.5 0.010834518197055904
23089.180630041927 0.5 0.011544590315020963
24602.398208697778 0.5 0.012301199104348888
26214.78896621353 0.5 0.013107394483106764
27932.85250948253 0.5 0.013966426254741265
29763.51441631313 0.5 0.014881757208156564
31714.154152689953 0.5 0.015857077076344976
33792.63481967431 0.5 0.016896317409837155
36007.334849856205 0.5 0.0180036674249281
38367.18178112649 0.5 0.019183590890563245
40881.6882439129 0.5 0.020440844121956448
43560.99030694608 0.5 0.021780495153473037
46415.888336127726 0.5 0.023207944168063863
49457.8905312064 0.5 0.0247289452656032
52699.259315756564 0.5 0.026349629657878283
56153.06076746278 0.5 0.02807653038373139
59833.21728796282 0.5 0.029916608643981407
63754.563724565065 0.5 0.03187728186228253
67932.90717006689 0.5 0.03396645358503344
72385.09068173247 0.5 0.03619254534086624
77129.06117627992 0.5 0.03856453058813996
82183.94177456807 0.5 0.04109197088728403
87570.10888760517 0.5 0.04378505444380258
93309.27435461663 0.5 0.04665463717730831
99424.57296427398 0.5 0.049712286482136984
105940.65571188499 0.5 0.052970327855942495
112883.78916846884 0.5 0.05644189458423442
120281.96136227775 0.5 0.06014098068113887
128164.9945995757 0.5 0.06408249729978785
136564.66567946097 0.5 0.06828233283973048
145514.83398731938 0.5 0.07275741699365969
155051.57798326222 0.5 0.07752578899163111
165213.34063573685 0.5 0.08260667031786842
176041.08438655525 0.5 0.08802054219327762
187578.45627201613 0.5 0.09378922813600807
199871.96386572486 0.5 0.09993598193286242
212971.16275234782 0.5 0.10648558137617391
226928.8562880081 0.5 0.11346442814400405
241801.3084525718 0.5 0.12090065422628589
257648.47065183744 0.5 0.12882423532591872
274534.22338387143 0.5 0.1372671116919357
292526.6337436642 0.5 0.14626331687183208
311698.2298041143 0.5 0.15584911490205716
332126.2929793748 0.5 0.1660631464896874
353893.1695490984 0.5 0.1769465847745492
377086.60259934515 0.5 0.18854330129967256
401800.0857182091 0.5 0.20090004285910454
428133.2398719396 0.5 0.2140666199359698
456192.21498074586 0.5 0.22809610749037293
486090.117813063 0.5 0.2430450589065315
517947.46792312124 0.5 0.2589737339615606
551892.6834697374 0.5 0.2759463417348687
588062.5988746757 0.5 0.29403129943733786
626603.0164072656 0.5 0.3133015082036328
667669.2939187556 0.5 0.3338346469593778
711426.971095573 0.5 0.3557134855477865
758052.4367559261 0.5 0.379026218377963
807733.6398796702 0.5 0.4038668199398351
860670.8472376158 0.5 0.4303354236188079
917077.4506742931 0.5 0.4585387253371465
977180.8272983889 0.5 0.4885904136491944
1041223.2560483044 0.5102017385427808 0.5102017385427808
1109462.8943275218 0.5266552226854685 0.5266552226854685
1182174.8186466699 0.5436393148601998 0.5436393148601998
1259652.1334671387 0.5611711266332087 0.5611711266332087
1342207.152716012 0.5792683214012337 0.5792683214012337
1430172.658735088 0.5979491321874897 0.5979491321874897
1523903.2437388273 0.6172323800115374 0.6172323800115374
1623776.739188721 0.6371374928515667 0.6371374928515667
1730195.7388458943 0.6576845252181882 0.6576845252181882
1843589.221641486 0.6788941783594639 0.6788941783594639
1964414.2809066267 0.700787821117531 0.700787821117531
2093157.9669325738 0.723387511457824 0.723387511457824
2230339.250288494 0.7467160186925974 0.7467160186925974
2376511.113811073 0.7707968464211359 0.7707968464211359
2532262.7816987946 0.795654256209755 0.795654256209755
2698222.094696533 0.8213132920354651 0.8213132920354651
2875058.040944877 0.8477998055179178 0.8477998055179178
3063483.452696084 0.8751404819650506 0.8751404819650506
3264257.879767324 0.9033628672586841 0.9033628672586841
3478190.651314127 0.9324953956071481 0.9324953956071481
3706144.138266228 0.9625674181929061 0.9625674181929061
3949037.2295767018 0.9936092327440277 0.9936092327440277
4207849.036297399 1.0256521140593187 1.0256521140593187
4483622.838411906 1.0587283455178558 1.0587283455178558
4777470.2903357735 1.0928712516046633 1.0928712516046633
5090575.902036676 1.1281152314853164 1.1281152314853164
5424201.813838024 1.1644957936632945 1.1644957936632945
5779692.884153313 1.2020495917549858 1.2020495917549858
6158482.110660254 1.2408144614184118 1.2408144614184118
6562096.406767555 1.2808294584728634 1.2808294584728634
6992162.756659375 1.3221348982478467 1.3221348982478467
7450414.7737289015 1.3647723962010023 1.3647723962010023
7938699.688838224 1.4087849098459124 1.4087849098459124
8458985.7965743 1.454216782032024 1.454216782032024
9013370.38951742 1.5011137856203158 1.5011137856203158
9604088.212505369 1.5495231695997134 1.5495231695997134
10233520.470972575 1.5994937066906965 1.5994937066906965
10904204.429677526 1.6510757424840876 1.6510757424840876
11618843.640510991 1.7043212461645099 1.7043212461645099
12380318.840613969 1.7592838628696315 1.7592838628696315
13191699.564735716 1.816018967737928 1.816018967737928
14056256.518642135 1.8745837216994428 1.8745837216994428
14977474.763452 1.9350371290657449 1.9350371290657449
15959067.76404731 1.9974400969770851 1.9974400969770851
17004992.358187906 2.0618554967666807 2.0618554967666807
18119464.706671223 2.1283482273039356 2.1283482273039356
19306977.288832497 2.196985280380395 2.196985280380395
20572317.01189553 2.2678358082043513 2.2678358082043513
21920584.507173233 2.340971193072078 2.340971193072078
23357214.690901212 2.416465119285876 2.416465119285876
24887998.672586672 2.494393647391419 2.494393647391419
26519107.09918535 2.574835290809169 2.574835290809169
28257115.02920827 2.6578710949370863 2.6578710949370863
30109028.437025927 2.743584718804302 2.743584718804302
32082312.454210743 2.8320625193580535 2.8320625193580535
34184921.46175927 2.9233936384687946 2.9233936384687946
36425331.15449638 3.0176700927411026 3.0176700927411026
38812572.70691532 3.1149868662209204 3.1149868662209204
41356269.17817706 3.215442006092516 3.215442006092516
44066674.30301786 3.3191367214615406 3.3191367214615406
46954713.82493421 3.426175485323767 3.426175485323767
50032029.53825999 3.5366661398222194 3.5366661398222194
53311026.21667033 3.6507200048987025 3.6507200048987025
56804921.61728417 3.7684519904492673 3.7684519904492673
60527799.76193343 3.8899807120965724 3.8899807120965724
64494667.7103762 4.015428610695756 4.015428610695756
68721516.05431108 4.144922075694279 4.144922075694279
73225383.37604526 4.278591572470001 4.278591572470001
78024424.93165044 4.416571773775742 4.416571773775742
83137985.83547334 4.5590016954228405 4.5590016954228405
88586679.04100814 4.7060248363403305 4.7060248363403305
94392468.43247664 4.857789323150929 4.857789323150929
100578757.36205815 5.014448059409384 5.014448059409384
107170482.98967092 5.176158879653689 5.176158879653689
114194216.80558647 5.343084708424209 5.343084708424209
121678271.7410923 5.515393724411076 5.515393724411076
129652816.29896688 5.693259529895131 5.693259529895131
138149996.16383237 5.876861325653183 5.876861325653183
147204063.78260043 6.066384091503777 6.066384091503777
156851516.43735445 6.262018772675359 6.262018772675359
167131243.3672486 6.463962472184701 6.463962472184701
178084682.5324681 6.672418649419192 6.672418649419192
189755987.65218505 6.8875973251233455 6.8875973251233455
202192206.18983474 7.109715292995824 7.109715292995824
215443469.00318778 7.338996338110338 7.338996338110338
229563192.4236905 7.5756714623802575 7.5756714623802575
244608293.57967955 7.819979117294361 7.819979117294361
260639419.83143473 8.07216544415801 8.07216544415801
277721193.2429355 8.332484522081867 8.332484522081867
295922471.07579577 8.601198623967996 8.601198623967996
315316623.3554368 8.878578480751251 8.878578480751251
335981828.6283788 9.164903554162189 9.164903554162189
358001389.1028573 9.460462318286265 9.460462318286265
381464066.4431174 9.765552550203155 9.765552550203155
406464439.5709628 10.080481629998673 10.080481629998673
433103285.9168983 10.405566850451953 10.405566850451953
461487987.6576925 10.741135736709742 10.741135736709742
491732964.5779006 11.087526376269647 11.087526376269647
523960135.3002634 11.445087759605247 11.445087759605247
558299408.7441914 11.814180131775876 11.814180131775876
594889207.7934331 12.195175355375513 12.195175355375513
633877027.2838488 12.588457285186387 12.588457285186387
675420028.5605594 12.994422154914771 12.994422154914771
719685673.0011529 13.413478976398636 13.413478976398636
766852397.0587026 13.846049951689313 13.846049951689313
817110331.5457187 14.292570898422357 14.292570898422357
870662068.0585117 14.753491688906323 14.753491688906323
927723475.631406 15.22927670337142 15.22927670337142
988524570.912824 15.720405297835232 15.720405297835232
1053310445.3709382 16.22737228705666 16.22737228705666
1122342253.266415 16.750688443064178 16.750688443064178
1195898264.3749769 17.290881009761886 17.290881009761886
1274274985.7031322 17.848494234130314 17.848494234130314
1357788356.7189276 18.424089914558383 18.424089914558383
1446775022.915648 19.018247966858354 19.018247966858354
1541593692.8422735 19.631567008534198 19.631567008534198
1642626584.070927 20.26466496189196 20.26466496189196
1750280963.9300976 20.918179676600076 20.918179676600076
1864990791.2142942 21.592769572326137 21.592769572326137
1987218465.4880533 22.289114302098533 22.289114302098533
2117456691.0357118 23.00791543706052 23.00791543706052
2256230462.970635 23.749897173307062 23.749897173307062
2404099183.5099645 24.515807061516274 24.515807061516274
2561658916.9457216 25.30641676011107 25.30641676011107
2729544792.402002 26.12252281270897 26.12252281270897
2908433564.064045 26.96494745064435 26.96494745064435
3099046339.1994267 27.83453942137101 27.83453942137101
3302151484.9681754 28.73217484357987 28.73217484357987
3518567725.7392664 29.65875808989339 29.65875808989339
3749167443.398878 30.61522269802589 30.61522269802589
3994880193.954162 31.60253231132816 31.60253231132816
4256696454.6078672 32.62168164966311 32.62168164966311
4535671616.408702 33.673697511591676 33.673697511591676
4832930238.571753 34.75963980887803 34.75963980887803
5149670581.618343 35.880602634356435 35.880602634356435
5487169437.608587 37.03771536423577 37.03771536423577
5846787276.937577 38.23214379595257 38.23214379595257
6229973732.441834 39.46509132271784 39.46509132271784
6638273442.923075 40.73780014594269 40.73780014594269
7073332279.644439 42.051552526763025 42.051552526763025
7536903980.898541 43.40767207792461 43.40767207792461
8030857221.3915205 44.80752509733025 44.80752509733025
8557183144.939984 46.252521944592345 46.252521944592345
9118003390.845663 47.74411846197828 47.74411846197828
9715578646.301847 49.283817441179025 49.283817441179025
10352317759.307377 50.87317013738031 50.87317013738031
11030787448.822151 52.51377783216075 52.51377783216075
11753722651.306368 54.20729344679175 54.20729344679175
12524037545.350693 55.95542320756473 55.95542320756473
13344837298.838356 57.75992836482391 57.75992836482391
14219430585.991646 59.62262696743503 59.62262696743503
15151342924.760513 61.545395694480085 61.545395694480085
16144330888.31602 63.53017174602163 63.53017174602163
17202397247.93599 65.57895479484252 65.57895479484252
18329807108.324375 67.69380900112722 67.69380900112722
19531105100.40627 69.87686509211449 69.87686509211449
20811133700.903908 72.13032250881717 72.13032250881717
22175052752.539295 74.45645162197043 74.45645162197043
23628360263.55175 76.85759601944324 76.85759601944324
25176914570.372772 79.33617486741589 79.33617486741589
26826957952.79727 81.89468534770323 81.89468534770323
28585141796.844658 84.53570517367892 84.53570517367892
30458553406.74278 87.26189518733646 87.26189518733646
32454744574.113255 90.07600204010119 90.07600204010119
34581762019.52377 92.98086096009729 92.98086096009729
36848179829.11677 95.97939860865556 95.97939860865556
39263134017.0684 99.07463602894083 99.07463602894083
41836359353.200066 102.26969168966932 102.26969168966932
44578228604.196976 105.56778462698384 105.56778462698384
47499794346.61403 108.97223768764917 108.97223768764917
50612833520.22214 112.4864808768393 112.4864808768393
53929894901.2887 116.11405481388623 116.11405481388623
57464349687.15974 119.85861429947342 119.85861429947342
61230445396.0519 123.72393199786764 123.72393199786764
65243363299.32608 127.7139022378986 127.7139022378986
69519279617.7559 131.83254493651776 131.83254493651776
74075430728.47156 136.08400964888523 136.08400964888523
78930182645.43567 140.4725797490703 140.4725797490703
84103105053.52605 145.0026767455743 145.0026767455743
89615050194.66049 149.6788647360245 149.6788647360245
95488236923.95638 154.5058550055275 154.5058550055275
101746340274.76042 159.4885107733159 159.4885107733159
108414586893.58328 164.63185209246666 164.63185209246666
115519856729.64781 169.94106090763336 169.94106090763336
123090791388.96019 175.4214862758837 175.4214862758837
131157909589.68503 181.07864975590374 181.07864975590374
139753730184.22867 186.91825097099846 186.91825097099846
148912903243.94055 192.94617335149493 192.94617335149493
158672349734.83145 199.16849006232854 199.16849006232854
169071410347.35782 205.59147012179142 205.59147012179142
180152004080.2024 212.22158471760267 212.22158471760267
191958797217.3111 219.06551372666527 219.06551372666527
204539383379.33905 226.1301524450792 226.1301524450792
217944475375.2979 233.42261853518926 233.42261853518926
232228109627.77197 240.9502591966711 240.9502591966711
247447863995.73477 248.72065856887258 248.72065856887258
263665089873.03555 256.74164537187744 256.74164537187744
280945159498.1406 265.02130079398364 265.02130079398364
299357729472.049 273.56796663354476 273.56796663354476
318977021546.63116 282.3902537033773 282.3902537033773
339882121815.26605 291.4970505062041 291.4970505062041
362157299511.8067 300.89753218986635 300.89753218986635
385892346702.9899 310.60116979133784 310.60116979133784
411182940243.5829 320.6177397788459 320.6177397788459
438131027453.33057 330.95733390171705 330.95733390171705
466845237070.37946 341.6303693578703 341.6303693578703
497441317137.74414 352.64759928919983 352.64759928919983
530042601587.9662 364.0201236154281 364.0201236154281
564780507406.7546 375.75940021733146 375.75940021733146
601795064379.7328 387.8772564806207 387.8772564806207
641235479557.6917 400.38590121209677 400.38590121209677
683260738715.7405 413.2979369400906 413.2979369400906
728040247230.8547 426.6263726115788 426.6263726115788
775754512961.2397 440.3846366987726 440.3846366987726
826595873880.1796 454.5865907283726 454.5865907283726
880769273397.5453 469.24654324713606 469.24654324713606
938493086494.2721 484.3792642378161 484.3792642378161
1000000000000.0 500.0 500.0
