# HZ S RI R 50
10.0 0.5 4.9999999999999996e-06 0.0 0.0 0.0 0.0 0.0 0.0 0.0 0.0 2.0 0.02 0.0 0.0 0.0 0.0 0.0 0.0 0.0 0.0 10.0 0.01 0.0 0.0 0.0 0.0 0.0 0.0 0.0 0.0 5.0 0.001
10.655379505623058 0.5 5.327689752811529e-06 0.0 0.0 0.0 0.0 0.0 0.0 0.0 0.0 2.0 0.021310759011246117 0.0 0.0 0.0 0.0 0.0 0.0 0.0 0.0 10.0 0.010655379505623059 0.0 0.0 0.0 0.0 0.0 0.0 0.0 0.0 5.0 0.0010655379505623058
11.35371124088519 0.5 5.676855620442594e-06 0.0 0.0 0.0 0.0 0.0 0.0 0.0 0.0 2.0 0.02270742248177038 0.0 0.0 0.0 0.0 0.0 0.0 0.0 0.0 10.0 0.01135371124088519 0.0 0.0 0.0 0.0 0.0 0.0 0.0 0.0 5.0 0.001135371124088519
12.097810206889013 0.5 6.048905103444506e-06 0.0 0.0 0.0 0.0 0.0 0.0 0.0 0.0 2.0 0.024195620413778027 0.0 0.0 0.0 0.0 0.0 0.0 0.0 0.0 10.0 0.012097810206889013 0.0 0.0 0.0 0.0 0.0 0.0 0.0 0.0 5.0 0.0012097810206889014
12.890675894140264 0.5 6.445337947070131e-06 0.0 0.0 0.0 0.0 0.0 0.0 0.0 0.0 2.0 0.02578135178828053 0.0 0.0 0.0 0.0 0.0 0.0 0.0 0.0 10.0 0.012890675894140266 0.0 0.0 0.0 0.0 0.0 0.0 0.0 0.0 5.0 0.0012890675894140263
13.735504373605137 0.5 6.8677521868025685e-06 0.0 0.0 0.0 0.0 0.0 0.0 0.0 0.0 2.0 0.027471008747210274 0.0 0.0 0.0 0.0 0.0 0.0 0.0 0.0 10.0 0.013735504373605137 0.0 0.0 0.0 0.0 0.0 0.0 0.0 0.0 5.0 0.0013735504373605138
14.635701180190798 0.5 7.317850590095399e-06 0.0 0.0 0.0 0.0 0.0 0.0 0.0 0.0 2.0 0.029271402360381598 0.0 0.0 0.0 0.0 0.0 0.0 0.0 0.0 10.0 0.014635701180190799 0.0 0.0 0.0 0.0 0.0 0.0 0.0 0.0 5.0 0.0014635701180190797
15.594895040582823 0.5 7.797447520291412e-06 0.0 0.0 0.0 0.0 0.0 0.0 0.0 0.0 2.0 0.03118979008116565 0.0 0.0 0.0 0.0 0.0 0.0 0.0 0.0 10.0 0.015594895040582823 0.0 0.0 0.0 0.0 0.0 0.0 0.0 0.0 5.0 0.0015594895040582824
16.61695250077689 0.5 8.308476250388444e-06 0.0 0.0 0.0 0.0 0.0 0.0 0.0 0.0 2.0 0.03323390500155378 0.0 0.0 0.0 0.0 0.0 0.0 0.0 0.0 10.0 0.01661695250077689 0.0 0.0 0.0 0.0 0.0 0.0 0.0 0.0 5.0 0.0016616952500776892
17.70599351226899 0.5 8.852996756134495e-06 0.0 0.0 0.0 0.0 0.0 0.0 0.0 0.0 2.0 0.03541198702453798 0.0 0.0 0.0 0.0 0.0 0.0 0.0 0.0 10.0 0.01770599351226899 0.0 0.0 0.0 0.0 0.0 0.0 0.0 0.0 5.0 0.001770599351226899
18.866408039732583 0.5 9.433204019866291e-06 0.0 0.0 0.0 0.0 0.0 0.0 0.0 0.0 2.0 0.037732816079465166 0.0 0.0 0.0 0.0 0.0 0.0 0.0 0.0 10.0 0.018866408039732583 0.0 0.0 0.0 0.0 0.0 0.0 0.0 0.0 5.0 0.0018866408039732584
20.102873757128854 0.5 1.0051436878564427e-05 0.0 0.0 0.0 0.0 0.0 0.0 0.0 0.0 2.0 0.04020574751425771 0.0 0.0 0.0 0.0 0.0 0.0 0.0 0.0 10.0 0.020102873757128856 0.0 0.0 0.0 0.0 0.0 0.0 0.0 0.0 5.0 0.0020102873757128856
21.42037490358384 0.5 1.071018745179192e-05 0.0 0.0 0.0 0.0 0.0 0.0 0.0 0.0 2.0 0.042840749807167684 0.0 0.0 0.0 0.0 0.0 0.0 0.0 0.0 10.0 0.021420374903583846 0.0 0.0 0.0 0.0 0.0 0.0 0.0 0.0 5.0 0.0021420374903583844
22.824222375040975 0.5 1.1412111187520488e-05 0.0 0.0 0.0 0.0 0.0 0.0 0.0 0.0 2.0 0.04564844475008195 0.0 0.0 0.0 0.0 0.0 0.0 0.0 0.0 10.0 0.022824222375040976 0.0 0.0 0.0 0.0 0.0 0.0 0.0 0.0 5.0 0.0022824222375040976
24.320075132679474 0.5 1.2160037566339737e-05 0.0 0.0 0.0 0.0 0.0 0.0 0.0 0.0 2.0 0.04864015026535895 0.0 0.0 0.0 0.0 0.0 0.0 0.0 0.0 10.0 0.024320075132679475 0.0 0.0 0.0 0.0 0.0 0.0 0.0 0.0 5.0 0.0024320075132679476
25.913963014396586 0.5 1.2956981507198292e-05 0.0 0.0 0.0 0.0 0.0 0.0 0.0 0.0 2.0 0.05182792602879317 0.0 0.0 0.0 0.0 0.0 0.0 0.0 0.0 10.0 0.025913963014396586 0.0 0.0 0.0 0.0 0.0 0.0 0.0 0.0 5.0 0.002591396301439659
27.61231104130753 0.5 1.3806155520653765e-05 0.0 0.0 0.0 0.0 0.0 0.0 0.0 0.0 2.0 0.05522462208261506 0.0 0.0 0.0 0.0 0.0 0.0 0.0 0.0 10.0 0.027612311041307534 0.0 0.0 0.0 0.0 0.0 0.0 0.0 0.0 5.0 0.0027612311041307538
29.421965317243757 0.5 1.4710982658621877e-05 0.0 0.0 0.0 0.0 0.0 0.0 0.0 0.0 2.0 0.058843930634487514 0.0 0.0 0.0 0.0 0.0 0.0 0.0 0.0 10.0 0.029421965317243757 0.0 0.0 0.0 0.0 0.0 0.0 0.0 0.0 5.0 0.002942196531724376
31.350220625651154 0.5 1.5675110312825577e-05 0.0 0.0 0.0 0.0 0.0 0.0 0.0 0.0 2.0 0.06270044125130231 0.0 0.0 0.0 0.0 0.0 0.0 0.0 0.0 10.0 0.031350220625651154 0.0 0.0 0.0 0.0 0.0 0.0 0.0 0.0 5.0 0.0031350220625651157
33.404849835132445 0.5 1.670242491756622e-05 0.0 0.0 0.0 0.0 0.0 0.0 0.0 0.0 2.0 0.06680969967026489 0.0 0.0 0.0 0.0 0.0 0.0 0.0 0.0 10.0 0.03340484983513245 0.0 0.0 0.0 0.0 0.0 0.0 0.0 0.0 5.0 0.003340484983513245
35.594135232168604 0.5 1.77970676160843e-05 0.0 0.0 0.0 0.0 0.0 0.0 0.0 0.0 2.0 0.0711882704643372 0.0 0.0 0.0 0.0 0.0 0.0 0.0 0.0 10.0 0.0355941352321686 0.0 0.0 0.0 0.0 0.0 0.0 0.0 0.0 5.0 0.0035594135232168604
37.926901907322495 0.5 1.8963450953661248e-05 0.0 0.0 0.0 0.0 0.0 0.0 0.0 0.0 2.0 0.07585380381464499 0.0 0.0 0.0 0.0 0.0 0.0 0.0 0.0 10.0 0.0379269019073225 0.0 0.0 0.0 0.0 0.0 0.0 0.0 0.0 5.0 0.00379269019073225
40.412553329506004 0.5 2.0206276664753e-05 0.0 0.0 0.0 0.0 0.0 0.0 0.0 0.0 2.0 0.080825106659012 0.0 0.0 0.0 0.0 0.0 0.0 0.0 0.0 10.0 0.04041255332950601 0.0 0.0 0.0 0.0 0.0 0.0 0.0 0.0 5.0 0.004041255332950601
43.06110925171171 0.5 2.1530554625855854e-05 0.0 0.0 0.0 0.0 0.0 0.0 0.0 0.0 2.0 0.08612221850342343 0.0 0.0 0.0 0.0 0.0 0.0 0.0 0.0 10.0 0.043061109251711714 0.0 0.0 0.0 0.0 0.0 0.0 0.0 0.0 5.0 0.004306110925171172
45.883246101008446 0.5 2.294162305050422e-05 0.0 0.0 0.0 0.0 0.0 0.0 0.0 0.0 2.0 0.0917664922020169 0.0 0.0 0.0 0.0 0.0 0.0 0.0 0.0 10.0 0.04588324610100844 0.0 0.0 0.0 0.0 0.0 0.0 0.0 0.0 5.0 0.004588324610100845
48.890340015614456 0.5 2.4445170007807227e-05 0.0 0.0 0.0 0.0 0.0 0.0 0.0 0.0 2.0 0.09778068003122892 0.0 0.0 0.0 0.0 0.0 0.0 0.0 0.0 10.0 0.04889034001561446 0.0 0.0 0.0 0.0 0.0 0.0 0.0 0.0 5.0 0.004889034001561446
52.094512702532114 0.5 2.6047256351266057e-05 0.0 0.0 0.0 0.0 0.0 0.0 0.0 0.0 2.0 0.10418902540506424 0.0 0.0 0.0 0.0 0.0 0.0 0.0 0.0 10.0 0.05209451270253212 0.0 0.0 0.0 0.0 0.0 0.0 0.0 0.0 5.0 0.0052094512702532125
55.50868030059805 0.5 2.7754340150299026e-05 0.0 0.0 0.0 0.0 0.0 0.0 0.0 0.0 2.0 0.1110173606011961 0.0 0.0 0.0 0.0 0.0 0.0 0.0 0.0 10.0 0.05550868030059806 0.0 0.0 0.0 0.0 0.0 0.0 0.0 0.0 5.0 0.005550868030059806
59.14660544591749 0.5 2.9573302722958744e-05 0.0 0.0 0.0 0.0 0.0 0.0 0.0 0.0 2.0 0.11829321089183498 0.0 0.0 0.0 0.0 0.0 0.0 0.0 0.0 10.0 0.05914660544591749 0.0 0.0 0.0 0.0 0.0 0.0 0.0 0.0 5.0 0.005914660544591749
63.02295274956024 0.5 3.151147637478012e-05 0.0 0.0 0.0 0.0 0.0 0.0 0.0 0.0 2.0 0.12604590549912048 0.0 0.0 0.0 0.0 0.0 0.0 0.0 0.0 10.0 0.06302295274956024 0.0 0.0 0.0 0.0 0.0 0.0 0.0 0.0 5.0 0.006302295274956024
67.15334791115141 0.5 3.3576673955575706e-05 0.0 0.0 0.0 0.0 0.0 0.0 0.0 0.0 2.0 0.13430669582230284 0.0 0.0 0.0 0.0 0.0 0.0 0.0 0.0 10.0 0.06715334791115142 0.0 0.0 0.0 0.0 0.0 0.0 0.0 0.0 5.0 0.006715334791115142
71.55444070664578 0.5 3.577722035332289e-05 0.0 0.0 0.0 0.0 0.0 0.0 0.0 0.0 2.0 0.14310888141329156 0.0 0.0 0.0 0.0 0.0 0.0 0.0 0.0 10.0 0.07155444070664578 0.0 0.0 0.0 0.0 0.0 0.0 0.0 0.0 5.0 0.007155444070664579
76.24397210419139 0.5 3.812198605209569e-05 0.0 0.0 0.0 0.0 0.0 0.0 0.0 0.0 2.0 0.15248794420838277 0.0 0.0 0.0 0.0 0.0 0.0 0.0 0.0 10.0 0.0762439721041914 0.0 0.0 0.0 0.0 0.0 0.0 0.0 0.0 5.0 0.007624397210419139
81.2408457786297 0.5 4.062042288931485e-05 0.0 0.0 0.0 0.0 0.0 0.0 0.0 0.0 2.0 0.16248169155725942 0.0 0.0 0.0 0.0 0.0 0.0 0.0 0.0 10.0 0.08124084577862971 0.0 0.0 0.0 0.0 0.0 0.0 0.0 0.0 5.0 0.008124084577862971
86.56520431290944 0.5 4.328260215645472e-05 0.0 0.0 0.0 0.0 0.0 0.0 0.0 0.0 2.0 0.17313040862581888 0.0 0.0 0.0 0.0 0.0 0.0 0.0 0.0 10.0 0.08656520431290946 0.0 0.0 0.0 0.0 0.0 0.0 0.0 0.0 5.0 0.008656520431290945
92.23851039358476 0.5 4.611925519679238e-05 0.0 0.0 0.0 0.0 0.0 0.0 0.0 0.0 2.0 0.18447702078716952 0.0 0.0 0.0 0.0 0.0 0.0 0.0 0.0 10.0 0.09223851039358477 0.0 0.0 0.0 0.0 0.0 0.0 0.0 0.0 5.0 0.009223851039358476
98.28363332770026 0.5 4.914181666385013e-05 0.0 0.0 0.0 0.0 0.0 0.0 0.0 0.0 2.0 0.19656726665540053 0.0 0.0 0.0 0.0 0.0 0.0 0.0 0.0 10.0 0.09828363332770026 0.0 0.0 0.0 0.0 0.0 0.0 0.0 0.0 5.0 0.009828363332770026
104.72494122981487 0.5 5.2362470614907434e-05 0.0 0.0 0.0 0.0 0.0 0.0 0.0 0.0 2.0 0.20944988245962975 0.0 0.0 0.0 0.0 0.0 0.0 0.0 0.0 10.0 0.10472494122981488 0.0 0.0 0.0 0.0 0.0 0.0 0.0 0.0 5.0 0.010472494122981488
111.5883992507748 0.5 5.5794199625387396e-05 0.0 0.0 0.0 0.0 0.0 0.0 0.0 0.0 2.0 0.2231767985015496 0.0 0.0 0.0 0.0 0.0 0.0 0.0 0.0 10.0 0.1115883992507748 0.0 0.0 0.0 0.0 0.0 0.0 0.0 0.0 5.0 0.01115883992507748
118.90167424419899 0.5 5.945083712209949e-05 0.0 0.0 0.0 0.0 0.0 0.0 0.0 0.0 2.0 0.237803348488398 0.0 0.0 0.0 0.0 0.0 0.0 0.0 0.0 10.0 0.11890167424419898 0.0 0.0 0.0 0.0 0.0 0.0 0.0 0.0 5.0 0.0118901674244199
126.69424629259063 0.5 6.334712314629531e-05 0.0 0.0 0.0 0.0 0.0 0.0 0.0 0.0 2.0 0.25338849258518126 0.0 0.0 0.0 0.0 0.0 0.0 0.0 0.0 10.0 0.12669424629259063 0.0 0.0 0.0 0.0 0.0 0.0 0.0 0.0 5.0 0.012669424629259064
134.99752754264296 0.5 6.749876377132148e-05 0.0 0.0 0.0 0.0 0.0 0.0 0.0 0.0 2.0 0.26999505508528593 0.0 0.0 0.0 0.0 0.0 0.0 0.0 0.0 10.0 0.13499752754264296 0.0 0.0 0.0 0.0 0.0 0.0 0.0 0.0 5.0 0.013499752754264297
143.8449888287663 0.5 7.192249441438315e-05 0.0 0.0 0.0 0.0 0.0 0.0 0.0 0.0 2.0 0.2876899776575326 0.0 0.0 0.0 0.0 0.0 0.0 0.0 0.0 10.0 0.1438449888287663 0.0 0.0 0.0 0.0 0.0 0.0 0.0 0.0 5.0 0.014384498882876632
153.27229459526134 0.5 7.663614729763067e-05 0.0 0.0 0.0 0.0 0.0 0.0 0.0 0.0 2.0 0.3065445891905227 0.0 0.0 0.0 0.0 0.0 0.0 0.0 0.0 10.0 0.15327229459526134 0.0 0.0 0.0 0.0 0.0 0.0 0.0 0.0 5.0 0.015327229459526135
163.31744666101667 0.5 8.165872333050833e-05 0.0 0.0 0.0 0.0 0.0 0.0 0.0 0.0 2.0 0.3266348933220334 0.0 0.0 0.0 0.0 0.0 0.0 0.0 0.0 10.0 0.1633174466610167 0.0 0.0 0.0 0.0 0.0 0.0 0.0 0.0 5.0 0.01633174466610167
174.0209374062485 0.5 8.701046870312424e-05 0.0 0.0 0.0 0.0 0.0 0.0 0.0 0.0 2.0 0.348041874812497 0.0 0.0 0.0 0.0 0.0 0.0 0.0 0.0 10.0 0.1740209374062485 0.0 0.0 0.0 0.0 0.0 0.0 0.0 0.0 5.0 0.01740209374062485
185.42591299878524 0.5 9.271295649939262e-05 0.0 0.0 0.0 0.0 0.0 0.0 0.0 0.0 2.0 0.3708518259975705 0.0 0.0 0.0 0.0 0.0 0.0 0.0 0.0 10.0 0.18542591299878525 0.0 0.0 0.0 0.0 0.0 0.0 0.0 0.0 5.0 0.018542591299878525
197.57834731786994 0.5 9.878917365893496e-05 0.0 0.0 0.0 0.0 0.0 0.0 0.0 0.0 2.0 0.3951566946357399 0.0 0.0 0.0 0.0 0.0 0.0 0.0 0.0 10.0 0.19757834731786994 0.0 0.0 0.0 0.0 0.0 0.0 0.0 0.0 5.0 0.019757834731786994
210.5272272765707 0.5 0.00010526361363828534 0.0 0.0 0.0 0.0 0.0 0.0 0.0 0.0 2.0 0.4210544545531414 0.0 0.0 0.0 0.0 0.0 0.0 0.0 0.0 10.0 0.2105272272765707 0.0 0.0 0.0 0.0 0.0 0.0 0.0 0.0 5.0 0.021052722727657073
224.32475028984203 0.5 0.00011216237514492102 0.0 0.0 0.0 0.0 0.0 0.0 0.0 0.0 2.0 0.44864950057968406 0.0 0.0 0.0 0.0 0.0 0.0 0.0 0.0 10.0 0.22432475028984206 0.0 0.0 0.0 0.0 0.0 0.0 0.0 0.0 5.0 0.022432475028984208
239.02653468423918 0.5 0.00011951326734211959 0.0 0.0 0.0 0.0 0.0 0.0 0.0 0.0 2.0 0.47805306936847836 0.0 0.0 0.0 0.0 0.0 0.0 0.0 0.0 10.0 0.2390265346842392 0.0 0.0 0.0 0.0 0.0 0.0 0.0 0.0 5.0 0.02390265346842392
254.691843897454 0.5 0.00012734592194872698 0.0 0.0 0.0 0.0 0.0 0.0 0.0 0.0 2.0 0.509383687794908 0.0 0.0 0.0 0.0 0.0 0.0 0.0 0.0 10.0 0.25469184389745403 0.0 0.0 0.0 0.0 0.0 0.0 0.0 0.0 5.0 0.0254691843897454
271.383825371428 0.5 0.000135691912685714 0.0 0.0 0.0 0.0 0.0 0.0 0.0 0.0 2.0 0.5427676507428559 0.0 0.0 0.0 0.0 0.0 0.0 0.0 0.0 10.0 0.27138382537142797 0.0 0.0 0.0 0.0 0.0 0.0 0.0 0.0 5.0 0.0271383825371428
289.16976510202994 0.5 0.00014458488255101497 0.0 0.0 0.0 0.0 0.0 0.0 0.0 0.0 2.0 0.5783395302040599 0.0 0.0 0.0 0.0 0.0 0.0 0.0 0.0 10.0 0.28916976510202996 0.0 0.0 0.0 0.0 0.0 0.0 0.0 0.0 5.0 0.028916976510202995
308.1213588714002 0.5 0.0001540606794357001 0.0 0.0 0.0 0.0 0.0 0.0 0.0 0.0 2.0 0.6162427177428005 0.0 0.0 0.0 0.0 0.0 0.0 0.0 0.0 10.0 0.30812135887140024 0.0 0.0 0.0 0.0 0.0 0.0 0.0 0.0 5.0 0.030812135887140026
328.3150012563047 0.5 0.00016415750062815233 0.0 0.0 0.0 0.0 0.0 0.0 0.0 0.0 2.0 0.6566300025126094 0.0 0.0 0.0 0.0 0.0 0.0 0.0 0.0 10.0 0.3283150012563047 0.0 0.0 0.0 0.0 0.0 0.0 0.0 0.0 5.0 0.03283150012563047
349.8320935775036 0.5 0.0001749160467887518 0.0 0.0 0.0 0.0 0.0 0.0 0.0 0.0 2.0 0.6996641871550072 0.0 0.0 0.0 0.0 0.0 0.0 0.0 0.0 10.0 0.34983209357750356 0.0 0.0 0.0 0.0 0.0 0.0 0.0 0.0 5.0 0.03498320935775036
372.7593720314938 0.5 0.0001863796860157469 0.0 0.0 0.0 0.0 0.0 0.0 0.0 0.0 2.0 0.7455187440629876 0.0 0.0 0.0 0.0 0.0 0.0 0.0 0.0 10.0 0.3727593720314938 0.0 0.0 0.0 0.0 0.0 0.0 0.0 0.0 5.0 0.03727593720314938
397.1892573273302 0.5 0.0001985946286636651 0.0 0.0 0.0 0.0 0.0 0.0 0.0 0.0 2.0 0.7943785146546605 0.0 0.0 0.0 0.0 0.0 0.0 0.0 0.0 10.0 0.39718925732733024 0.0 0.0 0.0 0.0 0.0 0.0 0.0 0.0 5.0 0.03971892573273302
423.22022723792753 0.5 0.00021161011361896375 0.0 0.0 0.0 0.0 0.0 0.0 0.0 0.0 2.0 0.846440454475855 0.0 0.0 0.0 0.0 0.0 0.0 0.0 0.0 10.0 0.42322022723792757 0.0 0.0 0.0 0.0 0.0 0.0 0.0 0.0 5.0 0.042322022723792756
450.9572135676145 0.5 0.00022547860678380724 0.0 0.0 0.0 0.0 0.0 0.0 0.0 0.0 2.0 0.901914427135229 0.0 0.0 0.0 0.0 0.0 0.0 0.0 0.0 10.0 0.45095721356761453 0.0 0.0 0.0 0.0 0.0 0.0 0.0 0.0 5.0 0.045095721356761445
480.5120251361242 0.5 0.00024025601256806207 0.0 0.0 0.0 0.0 0.0 0.0 0.0 0.0 2.0 0.9610240502722484 0.0 0.0 0.0 0.0 0.0 0.0 0.0 0.0 10.0 0.4805120251361242 0.0 0.0 0.0 0.0 0.0 0.0 0.0 0.0 5.0 0.04805120251361242
512.0037984840887 0.5 0.0002560018992420444 0.0 0.0 0.0 0.0 0.0 0.0 0.0 0.0 2.0 1.0240075969681774 0.0 0.0 0.0 0.0 0.0 0.0 0.0 0.0 10.0 0.5120037984840887 0.0 0.0 0.0 0.0 0.0 0.0 0.0 0.0 5.0 0.051200379848408875
545.5594781168514 0.5 0.0002727797390584257 0.0 0.0 0.0 0.0 0.0 0.0 0.0 0.0 2.0 1.091118956233703 0.0 0.0 0.0 0.0 0.0 0.0 0.0 0.0 10.0 0.5455594781168515 0.0 0.0 0.0 0.0 0.0 0.0 0.0 0.0 5.0 0.05455594781168514
581.3143282224713 0.5 0.00029065716411123566 0.0 0.0 0.0 0.0 0.0 0.0 0.0 0.0 2.0 1.1626286564449426 0.0 0.0 0.0 0.0 0.0 0.0 0.0 0.0 10.0 0.5813143282224713 0.0 0.0 0.0 0.0 0.0 0.0 0.0 0.0 5.0 0.05813143282224714
619.412477926676 0.5 0.00030970623896333803 0.0 0.0 0.0 0.0 0.0 0.0 0.0 0.0 2.0 1.2388249558533522 0.0 0.0 0.0 0.0 0.0 0.0 0.0 0.0 10.0 0.6194124779266761 0.0 0.0 0.0 0.0 0.0 0.0 0.0 0.0 5.0 0.06194124779266761
660.0075022827095 0.5 0.00033000375114135473 0.0 0.0 0.0 0.0 0.0 0.0 0.0 0.0 2.0 1.320015004565419 0.0 0.0 0.0 0.0 0.0 0.0 0.0 0.0 10.0 0.6600075022827095 0.0 0.0 0.0 0.0 0.0 0.0 0.0 0.0 5.0 0.06600075022827095
703.2630413380643 0.5 0.0003516315206690322 0.0 0.0 0.0 0.0 0.0 0.0 0.0 0.0 2.0 1.4065260826761288 0.0 0.0 0.0 0.0 0.0 0.0 0.0 0.0 10.0 0.7032630413380645 0.0 0.0 0.0 0.0 0.0 0.0 0.0 0.0 5.0 0.07032630413380644
749.3534597735757 0.5 0.0003746767298867878 0.0 0.0 0.0 0.0 0.0 0.0 0.0 0.0 2.0 1.4987069195471514 0.0 0.0 0.0 0.0 0.0 0.0 0.0 0.0 10.0 0.7493534597735757 0.0 0.0 0.0 0.0 0.0 0.0 0.0 0.0 5.0 0.07493534597735757
798.4645497739086 0.5 0.0003992322748869543 0.0 0.0 0.0 0.0 0.0 0.0 0.0 0.0 2.0 1.5969290995478174 0.0 0.0 0.0 0.0 0.0 0.0 0.0 0.0 10.0 0.7984645497739086 0.0 0.0 0.0 0.0 0.0 0.0 0.0 0.0 5.0 0.07984645497739086
850.7942799627444 0.5 0.0004253971399813722 0.0 0.0 0.0 0.0 0.0 0.0 0.0 0.0 2.0 1.701588559925489 0.0 0.0 0.0 0.0 0.0 0.0 0.0 0.0 10.0 0.8507942799627445 0.0 0.0 0.0 0.0 0.0 0.0 0.0 0.0 5.0 0.08507942799627445
906.5535934216358 0.5 0.0004532767967108179 0.0 0.0 0.0 0.0 0.0 0.0 0.0 0.0 2.0 1.8131071868432718 0.0 0.0 0.0 0.0 0.0 0.0 0.0 0.0 10.0 0.9065535934216358 0.0 0.0 0.0 0.0 0.0 0.0 0.0 0.0 5.0 0.09065535934216358
965.9672580093833 0.5 0.00048298362900469163 0.0 0.0 0.0 0.0 0.0 0.0 0.0 0.0 2.0 1.9319345160187666 0.0 0.0 0.0 0.0 0.0 0.0 0.0 0.0 10.0 0.9659672580093834 0.0 0.0 0.0 0.0 0.0 0.0 0.0 0.0 5.0 0.09659672580093834
1029.2747724096077 0.5 0.0005146373862048039 0.0 0.0 0.0 0.0 0.0 0.0 0.0 0.0 2.02906359920985 2.02906359920985 0.0 0.0 0.0 0.0 0.0 0.0 0.0 0.0 10.0 1.0292747724096079 0.0 0.0 0.0 0.0 0.0 0.0 0.0 0.0 5.0 0.10292747724096078
1096.7313315588178 0.5 0.0005483656657794089 0.0 0.0 0.0 0.0 0.0 0.0 0.0 0.0 2.094498824596297 2.094498824596297 0.0 0.0 0.0 0.0 0.0 0.0 0.0 0.0 10.0 1.0967313315588179 0.0 0.0 0.0 0.0 0.0 0.0 0.0 0.0 5.0 0.1096731331558818
1168.608855346651 0.5 0.0005843044276733255 0.0 0.0 0.0 0.0 0.0 0.0 0.0 0.0 2.1620442690626396 2.1620442690626396 0.0 0.0 0.0 0.0 0.0 0.0 0.0 0.0 10.0 1.168608855346651 0.0 0.0 0.0 0.0 0.0 0.0 0.0 0.0 5.0 0.11686088553466509
1245.197084735032 0.5 0.000622598542367516 0.0 0.0 0.0 0.0 0.0 0.0 0.0 0.0 2.2317679850154963 2.2317679850154963 0.0 0.0 0.0 0.0 0.0 0.0 0.0 0.0 10.0 1.245197084735032 0.0 0.0 0.0 0.0 0.0 0.0 0.0 0.0 5.0 0.1245197084735032
1326.8047497147245 0.5 0.0006634023748573622 0.0 0.0 0.0 0.0 0.0 0.0 0.0 0.0 2.3037402194819836 2.3037402194819836 0.0 0.0 0.0 0.0 0.0 0.0 0.0 0.0 10.0 1.3268047497147246 0.0 0.0 0.0 0.0 0.0 0.0 0.0 0.0 5.0 0.13268047497147248
1413.76081380736 0.5 0.0007068804069036799 0.0 0.0 0.0 0.0 0.0 0.0 0.0 0.0 2.3780334848839786 2.3780334848839786 0.0 0.0 0.0 0.0 0.0 0.0 0.0 0.0 10.0 1.4137608138073599 0.0 0.0 0.0 0.0 0.0 0.0 0.0 0.0 5.0 0.141376081380736
1506.4158001295928 0.5 0.0007532079000647963 0.0 0.0 0.0 0.0 0.0 0.0 0.0 0.0 2.4547226320947897 2.4547226320947897 0.0 0.0 0.0 0.0 0.0 0.0 0.0 0.0 10.0 1.5064158001295926 0.0 0.0 0.0 0.0 0.0 0.0 0.0 0.0 5.0 0.15064158001295927
1605.1432043647615 0.5 0.0008025716021823806 0.0 0.0 0.0 0.0 0.0 0.0 0.0 0.0 2.5338849258518126 2.5338849258518126 0.0 0.0 0.0 0.0 0.0 0.0 0.0 0.0 10.0 1.6051432043647615 0.0 0.0 0.0 0.0 0.0 0.0 0.0 0.0 5.0 0.16051432043647615
1710.3410003378397 0.5 0.0008551705001689198 0.0 0.0 0.0 0.0 0.0 0.0 0.0 0.0 2.61560012260119 2.61560012260119 0.0 0.0 0.0 0.0 0.0 0.0 0.0 0.0 10.0 1.7103410003378396 0.0 0.0 0.0 0.0 0.0 0.0 0.0 0.0 5.0 0.17103410003378397
1822.4332442626664 0.5 0.0009112166221313332 0.0 0.0 0.0 0.0 0.0 0.0 0.0 0.0 2.6999505508528605 2.6999505508528605 0.0 0.0 0.0 0.0 0.0 0.0 0.0 0.0 10.0 1.8224332442626665 0.0 0.0 0.0 0.0 0.0 0.0 0.0 0.0 5.0 0.18224332442626667
1941.8717841282548 0.5 0.0009709358920641273 0.0 0.0 0.0 0.0 0.0 0.0 0.0 0.0 2.7870211941269876 2.7870211941269876 0.0 0.0 0.0 0.0 0.0 0.0 0.0 0.0 10.0 1.941871784128255 0.0 0.0 0.0 0.0 0.0 0.0 0.0 0.0 5.0 0.19418717841282548
2069.13808111479 0.5 0.001034569040557395 0.0 0.0 0.0 0.0 0.0 0.0 0.0 0.0 2.876899776575326 2.876899776575326 0.0 0.0 0.0 0.0 0.0 0.0 0.0 0.0 10.0 2.06913808111479 0.0 0.0 0.0 0.0 0.0 0.0 0.0 0.0 5.0 0.20691380811147903
2204.7451503814746 0.5 0.0011023725751907372 0.0 0.0 0.0 0.0 0.0 0.0 0.0 0.0 2.9696768513637806 2.9696768513637806 0.0 0.0 0.0 0.0 0.0 0.0 0.0 0.0 10.0 2.204745150381475 0.0 0.0 0.0 0.0 0.0 0.0 0.0 0.0 5.0 0.22047451503814747
2349.239629049658 0.5 0.001174619814524829 0.0 0.0 0.0 0.0 0.0 0.0 0.0 0.0 3.065445891905227 3.065445891905227 0.0 0.0 0.0 0.0 0.0 0.0 0.0 0.0 10.0 2.349239629049658 0.0 0.0 0.0 0.0 0.0 0.0 0.0 0.0 5.0 0.23492396290496584
2503.203979717325 0.5 0.0012516019898586625 0.0 0.0 0.0 0.0 0.0 0.0 0.0 0.0 3.164303386034484 3.164303386034484 0.0 0.0 0.0 0.0 0.0 0.0 0.0 0.0 10.0 2.5032039797173256 0.0 0.0 0.0 0.0 0.0 0.0 0.0 0.0 5.0 0.25032039797173256
2667.2588383874054 0.5 0.0013336294191937026 0.0 0.0 0.0 0.0 0.0 0.0 0.0 0.0 3.266348933220335 3.266348933220335 0.0 0.0 0.0 0.0 0.0 0.0 0.0 0.0 10.0 2.6672588383874056 0.0 0.0 0.0 0.0 0.0 0.0 0.0 0.0 5.0 0.2667258838387405
2842.065516274511 0.5 0.0014210327581372555 0.0 0.0 0.0 0.0 0.0 0.0 0.0 0.0 3.3716853449125472 3.3716853449125472 0.0 0.0 0.0 0.0 0.0 0.0 0.0 0.0 10.0 2.842065516274511 0.0 0.0 0.0 0.0 0.0 0.0 0.0 0.0 5.0 0.2842065516274511
3028.3286655749457 0.5 0.0015141643327874728 0.0 0.0 0.0 0.0 0.0 0.0 0.0 0.0 3.4804187481249698 3.4804187481249698 0.0 0.0 0.0 0.0 0.0 0.0 0.0 0.0 10.0 3.028328665574946 0.0 0.0 0.0 0.0 0.0 0.0 0.0 0.0 5.0 0.30283286655749464
3226.7991199458083 0.5 0.0016133995599729042 0.0 0.0 0.0 0.0 0.0 0.0 0.0 0.0 3.592658692359077 3.592658692359077 0.0 0.0 0.0 0.0 0.0 0.0 0.0 0.0 10.0 3.2267991199458086 0.0 0.0 0.0 0.0 0.0 0.0 0.0 0.0 5.0 0.32267991199458085
